# vsim work_opt -c -coverage -do "setup.do" -l out.log 
# Start time: 13:19:55 on Dec 13,2022
# //  Questa Sim-64
# //  Version 10.7c linux_x86_64 Aug 17 2018
# //
# //  Copyright 1991-2018 Mentor Graphics Corporation
# //  All Rights Reserved.
# //
# //  QuestaSim and its associated documentation contain trade
# //  secrets and commercial or financial information that are the property of
# //  Mentor Graphics Corporation and are privileged, confidential,
# //  and exempt from disclosure under the Freedom of Information Act,
# //  5 U.S.C. Section 552. Furthermore, this information
# //  is prohibited from disclosure under the Trade Secrets Act,
# //  18 U.S.C. Section 1905.
# //
# Loading sv_std.std
# Loading work.AHBGPIO_top(fast)
# Loading work.AHBGPIO_intf(fast)
# Loading work.AHBGPIO(fast)
# Loading work.AHBGPIO_tb_sv_unit(fast)
# Loading work.AHBGPIO_tb(fast)
# Loading work.AHBGPIO_intf(fast)
# do setup.do
# [Environment] Starting at T = 0
# [Driver] Reset Start
# [Driver] Reset End
# [Generator] Starting at T=45000
# [Generator] Transaction randomization pass
# [Transaction] Outputs: HADDR, HTRANS, HWDATA, HWRITE, HSEL, HREADY, GPIOIN, PARITYSEL
# [Transaction] Values: 1a868f88, 1, e2874380, 1, 1, 1, 0e7c4, 0
# [Generator] Transaction randomization pass
# [Transaction] Outputs: HADDR, HTRANS, HWDATA, HWRITE, HSEL, HREADY, GPIOIN, PARITYSEL
# [Transaction] Values: 74d83a40, 0, 1fb64f28, 1, 0, 0, 10ddb, 1
# [Generator] Transaction randomization pass
# [Transaction] Outputs: HADDR, HTRANS, HWDATA, HWRITE, HSEL, HREADY, GPIOIN, PARITYSEL
# [Transaction] Values: 5725ee97, 0, 037e5b1c, 0, 1, 1, 0abe4, 0
# [Generator] Transaction randomization pass
# [Transaction] Outputs: HADDR, HTRANS, HWDATA, HWRITE, HSEL, HREADY, GPIOIN, PARITYSEL
# [Transaction] Values: 654ef527, 0, 84278caa, 0, 0, 1, 08c07, 1
# [Generator] Transaction randomization pass
# [Transaction] Outputs: HADDR, HTRANS, HWDATA, HWRITE, HSEL, HREADY, GPIOIN, PARITYSEL
# [Transaction] Values: 6ee395b0, 2, 8e0a3f0b, 0, 1, 1, 1ad7e, 0
# [Generator] Transaction randomization pass
# [Transaction] Outputs: HADDR, HTRANS, HWDATA, HWRITE, HSEL, HREADY, GPIOIN, PARITYSEL
# [Transaction] Values: a8efdb53, 1, 915135d5, 1, 1, 1, 1863e, 1
# [Generator] Transaction randomization pass
# [Transaction] Outputs: HADDR, HTRANS, HWDATA, HWRITE, HSEL, HREADY, GPIOIN, PARITYSEL
# [Transaction] Values: 89f314bb, 2, c02a896d, 0, 1, 1, 19cde, 0
# [Generator] Transaction randomization pass
# [Transaction] Outputs: HADDR, HTRANS, HWDATA, HWRITE, HSEL, HREADY, GPIOIN, PARITYSEL
# [Transaction] Values: da2e0f6f, 2, d40f4f46, 1, 0, 1, 15116, 1
# [Generator] Transaction randomization pass
# [Transaction] Outputs: HADDR, HTRANS, HWDATA, HWRITE, HSEL, HREADY, GPIOIN, PARITYSEL
# [Transaction] Values: b49755ac, 2, 95f2f2bd, 0, 0, 1, 0a39c, 0
# [Generator] Transaction randomization pass
# [Transaction] Outputs: HADDR, HTRANS, HWDATA, HWRITE, HSEL, HREADY, GPIOIN, PARITYSEL
# [Transaction] Values: 31c3a201, 1, 3c103bf5, 1, 0, 0, 1e5cc, 0
# [Generator] Transaction randomization pass
# [Transaction] Outputs: HADDR, HTRANS, HWDATA, HWRITE, HSEL, HREADY, GPIOIN, PARITYSEL
# [Transaction] Values: 678bee8a, 2, de8e9527, 0, 1, 1, 1c3cd, 1
# [Generator] Transaction randomization pass
# [Transaction] Outputs: HADDR, HTRANS, HWDATA, HWRITE, HSEL, HREADY, GPIOIN, PARITYSEL
# [Transaction] Values: 550ea696, 3, cdcfd9cb, 1, 0, 0, 1d490, 1
# [Generator] Transaction randomization pass
# [Transaction] Outputs: HADDR, HTRANS, HWDATA, HWRITE, HSEL, HREADY, GPIOIN, PARITYSEL
# [Transaction] Values: a6b1e671, 0, e9c92a1d, 1, 0, 0, 118aa, 1
# [Generator] Transaction randomization pass
# [Transaction] Outputs: HADDR, HTRANS, HWDATA, HWRITE, HSEL, HREADY, GPIOIN, PARITYSEL
# [Transaction] Values: 02a5d529, 1, ef68f790, 1, 0, 1, 0d3b9, 1
# [Generator] Transaction randomization pass
# [Transaction] Outputs: HADDR, HTRANS, HWDATA, HWRITE, HSEL, HREADY, GPIOIN, PARITYSEL
# [Transaction] Values: 5091760b, 1, f60da578, 1, 0, 1, 1e294, 1
# [Generator] Transaction randomization pass
# [Transaction] Outputs: HADDR, HTRANS, HWDATA, HWRITE, HSEL, HREADY, GPIOIN, PARITYSEL
# [Transaction] Values: 786c7da3, 3, 4c8aeef3, 0, 1, 1, 11361, 0
# [Generator] Transaction randomization pass
# [Transaction] Outputs: HADDR, HTRANS, HWDATA, HWRITE, HSEL, HREADY, GPIOIN, PARITYSEL
# [Transaction] Values: a17e71ba, 2, 7fea99e1, 1, 0, 1, 0fc72, 1
# [Generator] Transaction randomization pass
# [Transaction] Outputs: HADDR, HTRANS, HWDATA, HWRITE, HSEL, HREADY, GPIOIN, PARITYSEL
# [Transaction] Values: 45bc34e0, 3, d5a96a9e, 0, 0, 0, 186f0, 0
# [Generator] Transaction randomization pass
# [Transaction] Outputs: HADDR, HTRANS, HWDATA, HWRITE, HSEL, HREADY, GPIOIN, PARITYSEL
# [Transaction] Values: 776ae299, 2, 1e220f11, 1, 0, 0, 1793c, 0
# [Generator] Transaction randomization pass
# [Transaction] Outputs: HADDR, HTRANS, HWDATA, HWRITE, HSEL, HREADY, GPIOIN, PARITYSEL
# [Transaction] Values: edfe9b38, 0, 1665f5f1, 0, 1, 1, 0c7df, 0
# [Generator] Transaction randomization pass
# [Transaction] Outputs: HADDR, HTRANS, HWDATA, HWRITE, HSEL, HREADY, GPIOIN, PARITYSEL
# [Transaction] Values: c6441f7f, 0, b01f2529, 0, 0, 1, 1743c, 1
# [Generator] Transaction randomization pass
# [Transaction] Outputs: HADDR, HTRANS, HWDATA, HWRITE, HSEL, HREADY, GPIOIN, PARITYSEL
# [Transaction] Values: c0c22cad, 3, 7b9a6a49, 0, 1, 1, 09f82, 1
# [Generator] Transaction randomization pass
# [Transaction] Outputs: HADDR, HTRANS, HWDATA, HWRITE, HSEL, HREADY, GPIOIN, PARITYSEL
# [Transaction] Values: b1a44462, 1, 0edc377c, 1, 0, 1, 01141, 1
# [Generator] Transaction randomization pass
# [Transaction] Outputs: HADDR, HTRANS, HWDATA, HWRITE, HSEL, HREADY, GPIOIN, PARITYSEL
# [Transaction] Values: ba1abe36, 3, e827711a, 1, 1, 1, 1d463, 0
# [Generator] Transaction randomization pass
# [Transaction] Outputs: HADDR, HTRANS, HWDATA, HWRITE, HSEL, HREADY, GPIOIN, PARITYSEL
# [Transaction] Values: 7dfe4416, 2, 944cd4e2, 1, 0, 0, 1eed8, 0
# [Generator] Transaction randomization pass
# [Transaction] Outputs: HADDR, HTRANS, HWDATA, HWRITE, HSEL, HREADY, GPIOIN, PARITYSEL
# [Transaction] Values: df7d2148, 1, 4b4564be, 0, 0, 1, 05bd2, 0
# [Generator] Transaction randomization pass
# [Transaction] Outputs: HADDR, HTRANS, HWDATA, HWRITE, HSEL, HREADY, GPIOIN, PARITYSEL
# [Transaction] Values: 9b95f1ef, 3, 7eb6fb28, 0, 1, 1, 1eb62, 0
# [Generator] Transaction randomization pass
# [Transaction] Outputs: HADDR, HTRANS, HWDATA, HWRITE, HSEL, HREADY, GPIOIN, PARITYSEL
# [Transaction] Values: 75ad09b7, 0, c0ada83c, 1, 1, 1, 193d0, 1
# [Generator] Transaction randomization pass
# [Transaction] Outputs: HADDR, HTRANS, HWDATA, HWRITE, HSEL, HREADY, GPIOIN, PARITYSEL
# [Transaction] Values: a0d0047c, 1, 3721bbf9, 1, 0, 1, 1dfb2, 1
# [Generator] Transaction randomization pass
# [Transaction] Outputs: HADDR, HTRANS, HWDATA, HWRITE, HSEL, HREADY, GPIOIN, PARITYSEL
# [Transaction] Values: 0b6bbb24, 3, e3929a65, 0, 1, 1, 04ca4, 1
# [Generator] Transaction randomization pass
# [Transaction] Outputs: HADDR, HTRANS, HWDATA, HWRITE, HSEL, HREADY, GPIOIN, PARITYSEL
# [Transaction] Values: 7bb8a510, 0, e2974200, 1, 1, 1, 0e7bb, 1
# [Generator] Transaction randomization pass
# [Transaction] Outputs: HADDR, HTRANS, HWDATA, HWRITE, HSEL, HREADY, GPIOIN, PARITYSEL
# [Transaction] Values: 4f06f684, 3, 96d6fb4f, 1, 0, 0, 0a84c, 0
# [Generator] Transaction randomization pass
# [Transaction] Outputs: HADDR, HTRANS, HWDATA, HWRITE, HSEL, HREADY, GPIOIN, PARITYSEL
# [Transaction] Values: 4941d7ed, 2, 466ccf3d, 0, 1, 0, 1a5ae, 1
# [Generator] Transaction randomization pass
# [Transaction] Outputs: HADDR, HTRANS, HWDATA, HWRITE, HSEL, HREADY, GPIOIN, PARITYSEL
# [Transaction] Values: ea03dd7a, 0, c48727dd, 0, 1, 1, 07bfa, 0
# [Generator] Transaction randomization pass
# [Transaction] Outputs: HADDR, HTRANS, HWDATA, HWRITE, HSEL, HREADY, GPIOIN, PARITYSEL
# [Transaction] Values: 1835ca28, 2, e31265da, 0, 0, 0, 0477c, 1
# [Generator] Transaction randomization pass
# [Transaction] Outputs: HADDR, HTRANS, HWDATA, HWRITE, HSEL, HREADY, GPIOIN, PARITYSEL
# [Transaction] Values: b9cd7288, 1, a2a7355c, 0, 1, 0, 17100, 1
# [Generator] Transaction randomization pass
# [Transaction] Outputs: HADDR, HTRANS, HWDATA, HWRITE, HSEL, HREADY, GPIOIN, PARITYSEL
# [Transaction] Values: 6dbe775a, 0, 4cb6eeff, 0, 0, 0, 07ede, 0
# [Generator] Transaction randomization pass
# [Transaction] Outputs: HADDR, HTRANS, HWDATA, HWRITE, HSEL, HREADY, GPIOIN, PARITYSEL
# [Transaction] Values: 35f1bed2, 2, 953123b7, 1, 1, 0, 1c341, 1
# [Generator] Transaction randomization pass
# [Transaction] Outputs: HADDR, HTRANS, HWDATA, HWRITE, HSEL, HREADY, GPIOIN, PARITYSEL
# [Transaction] Values: f8690f5d, 3, 47618f7e, 1, 0, 1, 0d4a1, 0
# [Generator] Transaction randomization pass
# [Transaction] Outputs: HADDR, HTRANS, HWDATA, HWRITE, HSEL, HREADY, GPIOIN, PARITYSEL
# [Transaction] Values: c7614b75, 1, eb18349f, 1, 1, 0, 19395, 1
# [Generator] Transaction randomization pass
# [Transaction] Outputs: HADDR, HTRANS, HWDATA, HWRITE, HSEL, HREADY, GPIOIN, PARITYSEL
# [Transaction] Values: 53cbe571, 1, 42fd47cd, 1, 1, 1, 175f7, 0
# [Generator] Transaction randomization pass
# [Transaction] Outputs: HADDR, HTRANS, HWDATA, HWRITE, HSEL, HREADY, GPIOIN, PARITYSEL
# [Transaction] Values: e27d44a4, 3, 69409058, 1, 0, 0, 1f4d0, 1
# [Generator] Transaction randomization pass
# [Transaction] Outputs: HADDR, HTRANS, HWDATA, HWRITE, HSEL, HREADY, GPIOIN, PARITYSEL
# [Transaction] Values: 341cc323, 2, 7828fded, 0, 1, 1, 1ce88, 1
# [Generator] Transaction randomization pass
# [Transaction] Outputs: HADDR, HTRANS, HWDATA, HWRITE, HSEL, HREADY, GPIOIN, PARITYSEL
# [Transaction] Values: 5ed003c4, 1, 7d43b29f, 1, 0, 0, 0e539, 0
# [Generator] Transaction randomization pass
# [Transaction] Outputs: HADDR, HTRANS, HWDATA, HWRITE, HSEL, HREADY, GPIOIN, PARITYSEL
# [Transaction] Values: 5c9f140f, 2, 5a772707, 0, 1, 1, 1750e, 0
# [Generator] Transaction randomization pass
# [Transaction] Outputs: HADDR, HTRANS, HWDATA, HWRITE, HSEL, HREADY, GPIOIN, PARITYSEL
# [Transaction] Values: 821571f9, 2, 5175dc46, 1, 1, 0, 138c9, 1
# [Generator] Transaction randomization pass
# [Transaction] Outputs: HADDR, HTRANS, HWDATA, HWRITE, HSEL, HREADY, GPIOIN, PARITYSEL
# [Transaction] Values: a55f907f, 0, 7e2ca0a1, 0, 0, 0, 0edbd, 1
# [Generator] Transaction randomization pass
# [Transaction] Outputs: HADDR, HTRANS, HWDATA, HWRITE, HSEL, HREADY, GPIOIN, PARITYSEL
# [Transaction] Values: d8dedf2f, 0, 1531a7d9, 0, 0, 1, 1dc74, 0
# [Generator] Transaction randomization pass
# [Transaction] Outputs: HADDR, HTRANS, HWDATA, HWRITE, HSEL, HREADY, GPIOIN, PARITYSEL
# [Transaction] Values: 01958feb, 1, 91afdb6f, 0, 0, 0, 050d1, 1
# [Generator] Transaction randomization pass
# [Transaction] Outputs: HADDR, HTRANS, HWDATA, HWRITE, HSEL, HREADY, GPIOIN, PARITYSEL
# [Transaction] Values: 8adb6784, 3, f1be27ab, 0, 0, 0, 1d698, 0
# [Generator] Transaction randomization pass
# [Transaction] Outputs: HADDR, HTRANS, HWDATA, HWRITE, HSEL, HREADY, GPIOIN, PARITYSEL
# [Transaction] Values: 00000004, 1, ce5abeeb, 1, 1, 0, 0d290, 1
# [Generator] Transaction randomization pass
# [Transaction] Outputs: HADDR, HTRANS, HWDATA, HWRITE, HSEL, HREADY, GPIOIN, PARITYSEL
# [Transaction] Values: 4c892a83, 2, 00000000, 1, 1, 1, 1c515, 0
# [Generator] Transaction randomization pass
# [Transaction] Outputs: HADDR, HTRANS, HWDATA, HWRITE, HSEL, HREADY, GPIOIN, PARITYSEL
# [Transaction] Values: 6bccb5db, 2, 00c4d130, 1, 1, 1, 1fda8, 0
# [Generator] Transaction randomization pass
# [Transaction] Outputs: HADDR, HTRANS, HWDATA, HWRITE, HSEL, HREADY, GPIOIN, PARITYSEL
# [Transaction] Values: 2b12d8e6, 3, 58d46684, 1, 1, 1, 03663, 1
# [Generator] Transaction randomization pass
# [Transaction] Outputs: HADDR, HTRANS, HWDATA, HWRITE, HSEL, HREADY, GPIOIN, PARITYSEL
# [Transaction] Values: bbc0e108, 1, bedc9036, 1, 0, 1, 1de14, 0
# [Generator] Transaction randomization pass
# [Transaction] Outputs: HADDR, HTRANS, HWDATA, HWRITE, HSEL, HREADY, GPIOIN, PARITYSEL
# [Transaction] Values: 997f057e, 3, 205853ed, 1, 1, 0, 1222e, 1
# [Generator] Transaction randomization pass
# [Transaction] Outputs: HADDR, HTRANS, HWDATA, HWRITE, HSEL, HREADY, GPIOIN, PARITYSEL
# [Transaction] Values: dbb5c203, 0, 3dba40dd, 0, 1, 1, 1957a, 1
# [Generator] Transaction randomization pass
# [Transaction] Outputs: HADDR, HTRANS, HWDATA, HWRITE, HSEL, HREADY, GPIOIN, PARITYSEL
# [Transaction] Values: 89f3be71, 1, 687b7f38, 0, 1, 0, 05836, 1
# [Generator] Transaction randomization pass
# [Transaction] Outputs: HADDR, HTRANS, HWDATA, HWRITE, HSEL, HREADY, GPIOIN, PARITYSEL
# [Transaction] Values: 0ad9f2a4, 0, 028195d2, 1, 1, 1, 035d6, 1
# [Generator] Transaction randomization pass
# [Transaction] Outputs: HADDR, HTRANS, HWDATA, HWRITE, HSEL, HREADY, GPIOIN, PARITYSEL
# [Transaction] Values: ceab82c8, 0, 02a6574e, 0, 0, 1, 01d00, 1
# [Generator] Transaction randomization pass
# [Transaction] Outputs: HADDR, HTRANS, HWDATA, HWRITE, HSEL, HREADY, GPIOIN, PARITYSEL
# [Transaction] Values: 00000004, 3, 1ab3fd61, 1, 1, 1, 06415, 1
# [Generator] Transaction randomization pass
# [Transaction] Outputs: HADDR, HTRANS, HWDATA, HWRITE, HSEL, HREADY, GPIOIN, PARITYSEL
# [Transaction] Values: 8ef2ed0a, 3, 00000001, 1, 0, 1, 1b43b, 0
# [Generator] Transaction randomization pass
# [Transaction] Outputs: HADDR, HTRANS, HWDATA, HWRITE, HSEL, HREADY, GPIOIN, PARITYSEL
# [Transaction] Values: 85787a63, 2, 4e5fc781, 0, 0, 1, 0f0a5, 0
# [Generator] Transaction randomization pass
# [Transaction] Outputs: HADDR, HTRANS, HWDATA, HWRITE, HSEL, HREADY, GPIOIN, PARITYSEL
# [Transaction] Values: de8ee315, 1, 90c8a387, 0, 1, 0, 14bf7, 1
# [Generator] Transaction randomization pass
# [Transaction] Outputs: HADDR, HTRANS, HWDATA, HWRITE, HSEL, HREADY, GPIOIN, PARITYSEL
# [Transaction] Values: fade70d6, 3, 993c0620, 0, 0, 1, 11119, 0
# [Generator] Transaction randomization pass
# [Transaction] Outputs: HADDR, HTRANS, HWDATA, HWRITE, HSEL, HREADY, GPIOIN, PARITYSEL
# [Transaction] Values: b6d97e7d, 1, deace411, 0, 0, 1, 046d9, 0
# [Generator] Transaction randomization pass
# [Transaction] Outputs: HADDR, HTRANS, HWDATA, HWRITE, HSEL, HREADY, GPIOIN, PARITYSEL
# [Transaction] Values: 9e48f8ff, 2, c252ca5c, 1, 1, 0, 1b45f, 0
# [Generator] Transaction randomization pass
# [Transaction] Outputs: HADDR, HTRANS, HWDATA, HWRITE, HSEL, HREADY, GPIOIN, PARITYSEL
# [Transaction] Values: aa5f1ba2, 0, 90843327, 1, 0, 0, 1be6b, 0
# [Generator] Transaction randomization pass
# [Transaction] Outputs: HADDR, HTRANS, HWDATA, HWRITE, HSEL, HREADY, GPIOIN, PARITYSEL
# [Transaction] Values: ce7729d4, 0, 2fed3a41, 0, 1, 0, 18c39, 0
# [Generator] Transaction randomization pass
# [Transaction] Outputs: HADDR, HTRANS, HWDATA, HWRITE, HSEL, HREADY, GPIOIN, PARITYSEL
# [Transaction] Values: 722fbe98, 3, e027d537, 1, 1, 1, 01514, 1
# [Generator] Transaction randomization pass
# [Transaction] Outputs: HADDR, HTRANS, HWDATA, HWRITE, HSEL, HREADY, GPIOIN, PARITYSEL
# [Transaction] Values: 00000004, 1, 9224105a, 1, 0, 1, 115d8, 1
# [Generator] Transaction randomization pass
# [Transaction] Outputs: HADDR, HTRANS, HWDATA, HWRITE, HSEL, HREADY, GPIOIN, PARITYSEL
# [Transaction] Values: 7b7eeaca, 1, 00000000, 1, 1, 1, 09c02, 0
# [Generator] Transaction randomization pass
# [Transaction] Outputs: HADDR, HTRANS, HWDATA, HWRITE, HSEL, HREADY, GPIOIN, PARITYSEL
# [Transaction] Values: 8f20b444, 2, 1e47fe3d, 1, 1, 0, 1d90d, 1
# [Generator] Transaction randomization pass
# [Transaction] Outputs: HADDR, HTRANS, HWDATA, HWRITE, HSEL, HREADY, GPIOIN, PARITYSEL
# [Transaction] Values: 48e6c407, 0, 8733528b, 0, 1, 0, 1c5b7, 1
# [Generator] Transaction randomization pass
# [Transaction] Outputs: HADDR, HTRANS, HWDATA, HWRITE, HSEL, HREADY, GPIOIN, PARITYSEL
# [Transaction] Values: 1cd1d4b8, 3, 5035534b, 1, 1, 0, 14c0b, 1
# [Generator] Transaction randomization pass
# [Transaction] Outputs: HADDR, HTRANS, HWDATA, HWRITE, HSEL, HREADY, GPIOIN, PARITYSEL
# [Transaction] Values: b48a9fcd, 2, f82bf047, 0, 1, 0, 0ec95, 1
# [Generator] Transaction randomization pass
# [Transaction] Outputs: HADDR, HTRANS, HWDATA, HWRITE, HSEL, HREADY, GPIOIN, PARITYSEL
# [Transaction] Values: c2e6eb5c, 3, cd883da8, 1, 1, 0, 1c64e, 0
# [Generator] Transaction randomization pass
# [Transaction] Outputs: HADDR, HTRANS, HWDATA, HWRITE, HSEL, HREADY, GPIOIN, PARITYSEL
# [Transaction] Values: 46e2c888, 2, de558890, 0, 1, 1, 1b51d, 0
# [Generator] Transaction randomization pass
# [Transaction] Outputs: HADDR, HTRANS, HWDATA, HWRITE, HSEL, HREADY, GPIOIN, PARITYSEL
# [Transaction] Values: 284ab9e4, 3, b8f0fe6c, 1, 1, 0, 08f57, 0
# [Generator] Transaction randomization pass
# [Transaction] Outputs: HADDR, HTRANS, HWDATA, HWRITE, HSEL, HREADY, GPIOIN, PARITYSEL
# [Transaction] Values: d3749531, 2, 9a52ef1c, 1, 0, 1, 13142, 0
# [Generator] Transaction randomization pass
# [Transaction] Outputs: HADDR, HTRANS, HWDATA, HWRITE, HSEL, HREADY, GPIOIN, PARITYSEL
# [Transaction] Values: 00000004, 2, ca80ee49, 1, 0, 0, 1a804, 1
# [Generator] Transaction randomization pass
# [Transaction] Outputs: HADDR, HTRANS, HWDATA, HWRITE, HSEL, HREADY, GPIOIN, PARITYSEL
# [Transaction] Values: cfd97e73, 1, 00000001, 1, 1, 0, 0631e, 0
# [Generator] Transaction randomization pass
# [Transaction] Outputs: HADDR, HTRANS, HWDATA, HWRITE, HSEL, HREADY, GPIOIN, PARITYSEL
# [Transaction] Values: 0470f6c5, 3, f53c8f7d, 1, 1, 0, 0c152, 1
# [Generator] Transaction randomization pass
# [Transaction] Outputs: HADDR, HTRANS, HWDATA, HWRITE, HSEL, HREADY, GPIOIN, PARITYSEL
# [Transaction] Values: 14b98523, 3, 3598ebd0, 0, 1, 1, 00545, 0
# [Generator] Transaction randomization pass
# [Transaction] Outputs: HADDR, HTRANS, HWDATA, HWRITE, HSEL, HREADY, GPIOIN, PARITYSEL
# [Transaction] Values: d5d48856, 3, bf1268f0, 1, 1, 0, 0f4a9, 0
# [Generator] Transaction randomization pass
# [Transaction] Outputs: HADDR, HTRANS, HWDATA, HWRITE, HSEL, HREADY, GPIOIN, PARITYSEL
# [Transaction] Values: 39b6dc47, 2, bef6fc85, 1, 1, 1, 0d6ca, 1
# [Generator] Transaction randomization pass
# [Transaction] Outputs: HADDR, HTRANS, HWDATA, HWRITE, HSEL, HREADY, GPIOIN, PARITYSEL
# [Transaction] Values: a305556c, 3, 94522252, 1, 0, 0, 12009, 0
# [Generator] Transaction randomization pass
# [Transaction] Outputs: HADDR, HTRANS, HWDATA, HWRITE, HSEL, HREADY, GPIOIN, PARITYSEL
# [Transaction] Values: 2a750e51, 0, d68fcb4e, 1, 0, 0, 08a7d, 1
# [Generator] Transaction randomization pass
# [Transaction] Outputs: HADDR, HTRANS, HWDATA, HWRITE, HSEL, HREADY, GPIOIN, PARITYSEL
# [Transaction] Values: a997458e, 3, bb76a943, 0, 1, 0, 11a88, 1
# [Generator] Transaction randomization pass
# [Transaction] Outputs: HADDR, HTRANS, HWDATA, HWRITE, HSEL, HREADY, GPIOIN, PARITYSEL
# [Transaction] Values: 74c2d7f7, 3, 17429546, 1, 1, 1, 0ff43, 1
# [Generator] Transaction randomization pass
# [Transaction] Outputs: HADDR, HTRANS, HWDATA, HWRITE, HSEL, HREADY, GPIOIN, PARITYSEL
# [Transaction] Values: 00000004, 3, 7823ecde, 1, 0, 1, 02f7d, 1
# [Generator] Transaction randomization pass
# [Transaction] Outputs: HADDR, HTRANS, HWDATA, HWRITE, HSEL, HREADY, GPIOIN, PARITYSEL
# [Transaction] Values: 8825e1cf, 2, 00000000, 1, 0, 0, 16e45, 1
# [Generator] Transaction randomization pass
# [Transaction] Outputs: HADDR, HTRANS, HWDATA, HWRITE, HSEL, HREADY, GPIOIN, PARITYSEL
# [Transaction] Values: 1a9fd9ff, 3, 1ce009c9, 0, 1, 0, 1d1d7, 0
# [Generator] Transaction randomization pass
# [Transaction] Outputs: HADDR, HTRANS, HWDATA, HWRITE, HSEL, HREADY, GPIOIN, PARITYSEL
# [Transaction] Values: a776d459, 2, beefbb34, 1, 0, 0, 0c7a2, 0
# [Generator] Transaction randomization pass
# [Transaction] Outputs: HADDR, HTRANS, HWDATA, HWRITE, HSEL, HREADY, GPIOIN, PARITYSEL
# [Transaction] Values: 184b114d, 1, 30204a8e, 0, 0, 1, 06295, 0
# [Generator] Transaction randomization pass
# [Transaction] Outputs: HADDR, HTRANS, HWDATA, HWRITE, HSEL, HREADY, GPIOIN, PARITYSEL
# [Transaction] Values: 6af46986, 0, 3bd94347, 1, 0, 1, 0705d, 1
# [Generator] Transaction randomization pass
# [Transaction] Outputs: HADDR, HTRANS, HWDATA, HWRITE, HSEL, HREADY, GPIOIN, PARITYSEL
# [Transaction] Values: 8d3ddc5d, 1, 2f7484cb, 1, 0, 1, 191fd, 1
# [Generator] Transaction randomization pass
# [Transaction] Outputs: HADDR, HTRANS, HWDATA, HWRITE, HSEL, HREADY, GPIOIN, PARITYSEL
# [Transaction] Values: b296f65a, 3, 3c4a1b19, 0, 0, 0, 09e6e, 0
# [Generator] Transaction randomization pass
# [Transaction] Outputs: HADDR, HTRANS, HWDATA, HWRITE, HSEL, HREADY, GPIOIN, PARITYSEL
# [Transaction] Values: 37ba86a2, 2, 253c5048, 1, 1, 1, 1f201, 0
# [Generator] Transaction randomization pass
# [Transaction] Outputs: HADDR, HTRANS, HWDATA, HWRITE, HSEL, HREADY, GPIOIN, PARITYSEL
# [Transaction] Values: 8c137ddb, 1, a14e5059, 0, 0, 1, 1bc14, 0
# [Generator] Transaction randomization pass
# [Transaction] Outputs: HADDR, HTRANS, HWDATA, HWRITE, HSEL, HREADY, GPIOIN, PARITYSEL
# [Transaction] Values: 00000004, 3, 0a8865f0, 1, 0, 1, 02c36, 1
# [Generator] Transaction randomization pass
# [Transaction] Outputs: HADDR, HTRANS, HWDATA, HWRITE, HSEL, HREADY, GPIOIN, PARITYSEL
# [Transaction] Values: 7a243ce2, 2, 00000001, 1, 0, 0, 11ee4, 0
# [Generator] Transaction randomization pass
# [Transaction] Outputs: HADDR, HTRANS, HWDATA, HWRITE, HSEL, HREADY, GPIOIN, PARITYSEL
# [Transaction] Values: b4b20428, 0, 7f6680f1, 1, 1, 1, 0f795, 1
# [Generator] Transaction randomization pass
# [Transaction] Outputs: HADDR, HTRANS, HWDATA, HWRITE, HSEL, HREADY, GPIOIN, PARITYSEL
# [Transaction] Values: 846ef461, 3, 5817cfc2, 0, 0, 0, 0ed25, 0
# [Generator] Transaction randomization pass
# [Transaction] Outputs: HADDR, HTRANS, HWDATA, HWRITE, HSEL, HREADY, GPIOIN, PARITYSEL
# [Transaction] Values: 1e131160, 3, 2d25e80a, 0, 0, 1, 02ec0, 1
# [Generator] Transaction randomization pass
# [Transaction] Outputs: HADDR, HTRANS, HWDATA, HWRITE, HSEL, HREADY, GPIOIN, PARITYSEL
# [Transaction] Values: 6575b88e, 3, b30d6fc3, 0, 1, 1, 00f5d, 1
# [Generator] Transaction randomization pass
# [Transaction] Outputs: HADDR, HTRANS, HWDATA, HWRITE, HSEL, HREADY, GPIOIN, PARITYSEL
# [Transaction] Values: debb2169, 2, b91d0dc5, 0, 1, 1, 10a8a, 1
# [Generator] Transaction randomization pass
# [Transaction] Outputs: HADDR, HTRANS, HWDATA, HWRITE, HSEL, HREADY, GPIOIN, PARITYSEL
# [Transaction] Values: 3fa5208c, 1, 7aedd4d3, 0, 0, 0, 02fca, 1
# [Generator] Transaction randomization pass
# [Transaction] Outputs: HADDR, HTRANS, HWDATA, HWRITE, HSEL, HREADY, GPIOIN, PARITYSEL
# [Transaction] Values: 0ef847cf, 3, 7f844e51, 0, 1, 1, 0cbbe, 1
# [Generator] Transaction randomization pass
# [Transaction] Outputs: HADDR, HTRANS, HWDATA, HWRITE, HSEL, HREADY, GPIOIN, PARITYSEL
# [Transaction] Values: 7e121cd3, 0, 7e4f8584, 0, 0, 1, 0c5d8, 0
# [Generator] Transaction randomization pass
# [Transaction] Outputs: HADDR, HTRANS, HWDATA, HWRITE, HSEL, HREADY, GPIOIN, PARITYSEL
# [Transaction] Values: 00000004, 2, 0cecb559, 1, 1, 0, 1f93d, 0
# [Generator] Transaction randomization pass
# [Transaction] Outputs: HADDR, HTRANS, HWDATA, HWRITE, HSEL, HREADY, GPIOIN, PARITYSEL
# [Transaction] Values: e72d9199, 3, 00000000, 1, 0, 1, 1d943, 1
# [Generator] Transaction randomization pass
# [Transaction] Outputs: HADDR, HTRANS, HWDATA, HWRITE, HSEL, HREADY, GPIOIN, PARITYSEL
# [Transaction] Values: d43dd70e, 2, 2edbf647, 1, 0, 1, 05a6e, 0
# [Generator] Transaction randomization pass
# [Transaction] Outputs: HADDR, HTRANS, HWDATA, HWRITE, HSEL, HREADY, GPIOIN, PARITYSEL
# [Transaction] Values: c2547f5d, 2, ff8690ad, 0, 1, 1, 12325, 1
# [Generator] Transaction randomization pass
# [Transaction] Outputs: HADDR, HTRANS, HWDATA, HWRITE, HSEL, HREADY, GPIOIN, PARITYSEL
# [Transaction] Values: 4d8dec92, 2, 6fe8330e, 1, 0, 0, 06d9a, 1
# [Generator] Transaction randomization pass
# [Transaction] Outputs: HADDR, HTRANS, HWDATA, HWRITE, HSEL, HREADY, GPIOIN, PARITYSEL
# [Transaction] Values: 16c684f7, 0, b1c271f4, 1, 0, 0, 136a6, 0
# [Generator] Transaction randomization pass
# [Transaction] Outputs: HADDR, HTRANS, HWDATA, HWRITE, HSEL, HREADY, GPIOIN, PARITYSEL
# [Transaction] Values: e9b5cdb7, 1, 015a8b21, 1, 1, 0, 0793f, 0
# [Generator] Transaction randomization pass
# [Transaction] Outputs: HADDR, HTRANS, HWDATA, HWRITE, HSEL, HREADY, GPIOIN, PARITYSEL
# [Transaction] Values: 18363da6, 1, 0c763f55, 0, 0, 0, 1f67f, 1
# [Generator] Transaction randomization pass
# [Transaction] Outputs: HADDR, HTRANS, HWDATA, HWRITE, HSEL, HREADY, GPIOIN, PARITYSEL
# [Transaction] Values: daaf3ca5, 2, 06bfb7cb, 1, 1, 1, 136f1, 0
# [Generator] Transaction randomization pass
# [Transaction] Outputs: HADDR, HTRANS, HWDATA, HWRITE, HSEL, HREADY, GPIOIN, PARITYSEL
# [Transaction] Values: f78117d4, 0, 83734ea3, 0, 0, 1, 0cfa8, 0
# [Generator] Transaction randomization pass
# [Transaction] Outputs: HADDR, HTRANS, HWDATA, HWRITE, HSEL, HREADY, GPIOIN, PARITYSEL
# [Transaction] Values: 00000004, 1, 04a0c0db, 1, 0, 0, 02238, 1
# [Generator] Transaction randomization pass
# [Transaction] Outputs: HADDR, HTRANS, HWDATA, HWRITE, HSEL, HREADY, GPIOIN, PARITYSEL
# [Transaction] Values: 841ab2b3, 2, 00000001, 1, 1, 0, 15364, 0
# [Generator] Transaction randomization pass
# [Transaction] Outputs: HADDR, HTRANS, HWDATA, HWRITE, HSEL, HREADY, GPIOIN, PARITYSEL
# [Transaction] Values: 5fef4a58, 1, 6855cfed, 1, 0, 1, 07561, 0
# [Generator] Transaction randomization pass
# [Transaction] Outputs: HADDR, HTRANS, HWDATA, HWRITE, HSEL, HREADY, GPIOIN, PARITYSEL
# [Transaction] Values: e02fb594, 1, 9b1bc911, 0, 0, 0, 18034, 1
# [Generator] Transaction randomization pass
# [Transaction] Outputs: HADDR, HTRANS, HWDATA, HWRITE, HSEL, HREADY, GPIOIN, PARITYSEL
# [Transaction] Values: 9853fa99, 1, f3ba6cb3, 1, 1, 0, 06a22, 0
# [Generator] Transaction randomization pass
# [Transaction] Outputs: HADDR, HTRANS, HWDATA, HWRITE, HSEL, HREADY, GPIOIN, PARITYSEL
# [Transaction] Values: dbbf25f4, 1, 2e6406bc, 1, 0, 0, 155e4, 1
# [Generator] Transaction randomization pass
# [Transaction] Outputs: HADDR, HTRANS, HWDATA, HWRITE, HSEL, HREADY, GPIOIN, PARITYSEL
# [Transaction] Values: 4f617001, 0, df0771e3, 0, 0, 0, 18c89, 1
# [Generator] Transaction randomization pass
# [Transaction] Outputs: HADDR, HTRANS, HWDATA, HWRITE, HSEL, HREADY, GPIOIN, PARITYSEL
# [Transaction] Values: a1d5ca14, 1, 004b226d, 1, 1, 0, 155c5, 0
# [Generator] Transaction randomization pass
# [Transaction] Outputs: HADDR, HTRANS, HWDATA, HWRITE, HSEL, HREADY, GPIOIN, PARITYSEL
# [Transaction] Values: b0fca2ba, 0, 2ff70798, 1, 0, 1, 0413a, 0
# [Generator] Transaction randomization pass
# [Transaction] Outputs: HADDR, HTRANS, HWDATA, HWRITE, HSEL, HREADY, GPIOIN, PARITYSEL
# [Transaction] Values: be8e8619, 3, b08f8d9e, 1, 0, 0, 10288, 1
# [Generator] Transaction randomization pass
# [Transaction] Outputs: HADDR, HTRANS, HWDATA, HWRITE, HSEL, HREADY, GPIOIN, PARITYSEL
# [Transaction] Values: 00000004, 0, 6903709e, 1, 0, 0, 00a45, 1
# [Generator] Transaction randomization pass
# [Transaction] Outputs: HADDR, HTRANS, HWDATA, HWRITE, HSEL, HREADY, GPIOIN, PARITYSEL
# [Transaction] Values: c7f84055, 2, 00000000, 1, 0, 1, 00aaf, 0
# [Generator] Transaction randomization pass
# [Transaction] Outputs: HADDR, HTRANS, HWDATA, HWRITE, HSEL, HREADY, GPIOIN, PARITYSEL
# [Transaction] Values: c065835d, 1, c56749d7, 1, 0, 0, 10d3f, 1
# [Generator] Transaction randomization pass
# [Transaction] Outputs: HADDR, HTRANS, HWDATA, HWRITE, HSEL, HREADY, GPIOIN, PARITYSEL
# [Transaction] Values: b7e5e0b6, 1, 6b8b1162, 1, 1, 1, 088bd, 1
# [Generator] Transaction randomization pass
# [Transaction] Outputs: HADDR, HTRANS, HWDATA, HWRITE, HSEL, HREADY, GPIOIN, PARITYSEL
# [Transaction] Values: 4b64c329, 1, faa691ea, 1, 0, 0, 0eb22, 1
# [Generator] Transaction randomization pass
# [Transaction] Outputs: HADDR, HTRANS, HWDATA, HWRITE, HSEL, HREADY, GPIOIN, PARITYSEL
# [Transaction] Values: 2bfc037f, 2, 64d9afcd, 0, 1, 1, 1abbb, 1
# [Generator] Transaction randomization pass
# [Transaction] Outputs: HADDR, HTRANS, HWDATA, HWRITE, HSEL, HREADY, GPIOIN, PARITYSEL
# [Transaction] Values: ea1d0156, 1, b7ee47de, 1, 0, 1, 08db6, 1
# [Generator] Transaction randomization pass
# [Transaction] Outputs: HADDR, HTRANS, HWDATA, HWRITE, HSEL, HREADY, GPIOIN, PARITYSEL
# [Transaction] Values: 4d30416c, 2, 297a60e9, 0, 1, 1, 060a6, 1
# [Generator] Transaction randomization pass
# [Transaction] Outputs: HADDR, HTRANS, HWDATA, HWRITE, HSEL, HREADY, GPIOIN, PARITYSEL
# [Transaction] Values: b271d11e, 1, e7271fbd, 0, 0, 0, 123a5, 0
# [Generator] Transaction randomization pass
# [Transaction] Outputs: HADDR, HTRANS, HWDATA, HWRITE, HSEL, HREADY, GPIOIN, PARITYSEL
# [Transaction] Values: b370f27d, 1, f1ee4e81, 0, 1, 1, 1c82d, 0
# [Generator] Transaction randomization pass
# [Transaction] Outputs: HADDR, HTRANS, HWDATA, HWRITE, HSEL, HREADY, GPIOIN, PARITYSEL
# [Transaction] Values: 00000004, 2, 246c727d, 1, 0, 1, 16914, 0
# [Generator] Transaction randomization pass
# [Transaction] Outputs: HADDR, HTRANS, HWDATA, HWRITE, HSEL, HREADY, GPIOIN, PARITYSEL
# [Transaction] Values: 6fa857c8, 3, 00000001, 1, 0, 0, 13896, 1
# [Generator] Transaction randomization pass
# [Transaction] Outputs: HADDR, HTRANS, HWDATA, HWRITE, HSEL, HREADY, GPIOIN, PARITYSEL
# [Transaction] Values: 5e02b462, 2, 7b251bce, 1, 0, 1, 1a4e4, 1
# [Generator] Transaction randomization pass
# [Transaction] Outputs: HADDR, HTRANS, HWDATA, HWRITE, HSEL, HREADY, GPIOIN, PARITYSEL
# [Transaction] Values: e7eade90, 3, 96469200, 0, 0, 1, 1fb54, 1
# [Generator] Transaction randomization pass
# [Transaction] Outputs: HADDR, HTRANS, HWDATA, HWRITE, HSEL, HREADY, GPIOIN, PARITYSEL
# [Transaction] Values: 3a2d3745, 1, 5da9e17d, 0, 0, 0, 03a4a, 0
# [Generator] Transaction randomization pass
# [Transaction] Outputs: HADDR, HTRANS, HWDATA, HWRITE, HSEL, HREADY, GPIOIN, PARITYSEL
# [Transaction] Values: 1fcc0696, 0, fa542059, 0, 0, 0, 12765, 1
# [Generator] Transaction randomization pass
# [Transaction] Outputs: HADDR, HTRANS, HWDATA, HWRITE, HSEL, HREADY, GPIOIN, PARITYSEL
# [Transaction] Values: 76bb47de, 0, 091475dc, 0, 1, 1, 1e6ea, 1
# [Generator] Transaction randomization pass
# [Transaction] Outputs: HADDR, HTRANS, HWDATA, HWRITE, HSEL, HREADY, GPIOIN, PARITYSEL
# [Transaction] Values: 572d07bb, 0, 4b6c2fcf, 0, 1, 0, 03117, 1
# [Generator] Transaction randomization pass
# [Transaction] Outputs: HADDR, HTRANS, HWDATA, HWRITE, HSEL, HREADY, GPIOIN, PARITYSEL
# [Transaction] Values: c788c5eb, 1, c20ba7d4, 1, 0, 0, 1949a, 1
# [Generator] Transaction randomization pass
# [Transaction] Outputs: HADDR, HTRANS, HWDATA, HWRITE, HSEL, HREADY, GPIOIN, PARITYSEL
# [Transaction] Values: 48c82240, 1, caaa022d, 0, 0, 0, 0785a, 0
# [Driver] Starting at T=45000
# [Driver] Packet No. 1
# [Driver] Packet Complete, T=55000
# [Driver] Packet No. 2
# [Time = 55000][Monitor] Sampling output No. 0
# -------------------[Time = 55000][Scoreboard][Packet no. 0]-------------------
# [Transaction] Outputs: HADDR, HTRANS, HWDATA, HWRITE, HSEL, HREADY, GPIOIN, PARITYSEL
# [Transaction] Values: 00000000, 0, 00000000, 0, 0, 0, 00000, 0
# ------------------------------------------------------------------------------
# [Driver] Packet Complete, T=65000
# [Driver] Packet No. 3
# [Time = 65000][Monitor] Sampling output No. 1
# -------------------[Time = 65000][Scoreboard][Packet no. 1]-------------------
# [Transaction] Outputs: HADDR, HTRANS, HWDATA, HWRITE, HSEL, HREADY, GPIOIN, PARITYSEL
# [Transaction] Values: 00000000, 0, 00000000, 0, 0, 0, 0e7c4, 0
# ------------------------------------------------------------------------------
# [Time = 65000][Scoreboard] GPIOIN Input Read pass expected e7c4 actual e7c4
# [Time = 65000][Scoreboard] PARITYERR GPIOIN pass expected 1 actual 1
# [Driver] Packet Complete, T=75000
# [Driver] Packet No. 4
# [Time = 75000][Monitor] Sampling output No. 2
# -------------------[Time = 75000][Scoreboard][Packet no. 2]-------------------
# [Transaction] Outputs: HADDR, HTRANS, HWDATA, HWRITE, HSEL, HREADY, GPIOIN, PARITYSEL
# [Transaction] Values: 00000000, 2, e2874380, 1, 1, 1, 10ddb, 0
# ------------------------------------------------------------------------------
# [Time = 75000][Scoreboard] GPIOIN Input Read pass expected ddb actual ddb
# [Time = 75000][Scoreboard] PARITYERR GPIOIN pass expected 0 actual 0
# [Driver] Packet Complete, T=85000
# [Driver] Packet No. 5
# [Time = 85000][Monitor] Sampling output No. 3
# -------------------[Time = 85000][Scoreboard][Packet no. 3]-------------------
# [Transaction] Outputs: HADDR, HTRANS, HWDATA, HWRITE, HSEL, HREADY, GPIOIN, PARITYSEL
# [Transaction] Values: 00000000, 2, 1fb64f28, 1, 0, 1, 0abe4, 1
# ------------------------------------------------------------------------------
# [Time = 85000][Scoreboard] GPIOIN Input Read pass expected abe4 actual abe4
# [Time = 85000][Scoreboard] PARITYERR GPIOIN pass expected 0 actual 0
# [Driver] Packet Complete, T=95000
# [Driver] Packet No. 6
# [Time = 95000][Monitor] Sampling output No. 4
# -------------------[Time = 95000][Scoreboard][Packet no. 4]-------------------
# [Transaction] Outputs: HADDR, HTRANS, HWDATA, HWRITE, HSEL, HREADY, GPIOIN, PARITYSEL
# [Transaction] Values: 00000000, 2, 037e5b1c, 0, 1, 1, 08c07, 0
# ------------------------------------------------------------------------------
# [Time = 95000][Scoreboard] GPIOIN Input Read pass expected 8c07 actual 8c07
# [Time = 95000][Scoreboard] PARITYERR GPIOIN pass expected 0 actual 0
# [Driver] Packet Complete, T=105000
# [Driver] Packet No. 7
# [Time = 105000][Monitor] Sampling output No. 5
# -------------------[Time = 105000][Scoreboard][Packet no. 5]-------------------
# [Transaction] Outputs: HADDR, HTRANS, HWDATA, HWRITE, HSEL, HREADY, GPIOIN, PARITYSEL
# [Transaction] Values: 00000000, 2, 84278caa, 0, 0, 1, 1ad7e, 1
# ------------------------------------------------------------------------------
# [Time = 105000][Scoreboard] GPIOIN Input Read pass expected ad7e actual ad7e
# [Time = 105000][Scoreboard] PARITYERR GPIOIN pass expected 1 actual 1
# [Driver] Packet Complete, T=115000
# [Driver] Packet No. 8
# [Time = 115000][Monitor] Sampling output No. 6
# -------------------[Time = 115000][Scoreboard][Packet no. 6]-------------------
# [Transaction] Outputs: HADDR, HTRANS, HWDATA, HWRITE, HSEL, HREADY, GPIOIN, PARITYSEL
# [Transaction] Values: 00000000, 2, 8e0a3f0b, 0, 1, 1, 1863e, 0
# ------------------------------------------------------------------------------
# [Time = 115000][Scoreboard] GPIOIN Input Read pass expected 863e actual 863e
# [Time = 115000][Scoreboard] PARITYERR GPIOIN pass expected 1 actual 1
# [Driver] Packet Complete, T=125000
# [Driver] Packet No. 9
# [Time = 125000][Monitor] Sampling output No. 7
# -------------------[Time = 125000][Scoreboard][Packet no. 7]-------------------
# [Transaction] Outputs: HADDR, HTRANS, HWDATA, HWRITE, HSEL, HREADY, GPIOIN, PARITYSEL
# [Transaction] Values: 00000000, 2, 915135d5, 1, 1, 1, 19cde, 1
# ------------------------------------------------------------------------------
# [Time = 125000][Scoreboard] GPIOIN Input Read pass expected 9cde actual 9cde
# [Time = 125000][Scoreboard] PARITYERR GPIOIN pass expected 0 actual 0
# [Driver] Packet Complete, T=135000
# [Driver] Packet No. 10
# [Time = 135000][Monitor] Sampling output No. 8
# -------------------[Time = 135000][Scoreboard][Packet no. 8]-------------------
# [Transaction] Outputs: HADDR, HTRANS, HWDATA, HWRITE, HSEL, HREADY, GPIOIN, PARITYSEL
# [Transaction] Values: 00000000, 2, c02a896d, 0, 1, 1, 15116, 0
# ------------------------------------------------------------------------------
# [Time = 135000][Scoreboard] GPIOIN Input Read pass expected 5116 actual 5116
# [Time = 135000][Scoreboard] PARITYERR GPIOIN pass expected 1 actual 1
# [Driver] Packet Complete, T=145000
# [Driver] Packet No. 11
# [Time = 145000][Monitor] Sampling output No. 9
# -------------------[Time = 145000][Scoreboard][Packet no. 9]-------------------
# [Transaction] Outputs: HADDR, HTRANS, HWDATA, HWRITE, HSEL, HREADY, GPIOIN, PARITYSEL
# [Transaction] Values: 00000000, 2, d40f4f46, 1, 0, 1, 0a39c, 1
# ------------------------------------------------------------------------------
# [Time = 145000][Scoreboard] GPIOIN Input Read pass expected a39c actual a39c
# [Time = 145000][Scoreboard] PARITYERR GPIOIN pass expected 1 actual 1
# [Driver] Packet Complete, T=155000
# [Driver] Packet No. 12
# [Time = 155000][Monitor] Sampling output No. 10
# -------------------[Time = 155000][Scoreboard][Packet no. 10]-------------------
# [Transaction] Outputs: HADDR, HTRANS, HWDATA, HWRITE, HSEL, HREADY, GPIOIN, PARITYSEL
# [Transaction] Values: 00000000, 2, 95f2f2bd, 0, 0, 1, 1e5cc, 0
# ------------------------------------------------------------------------------
# [Time = 155000][Scoreboard] GPIOIN Input Read pass expected e5cc actual e5cc
# [Time = 155000][Scoreboard] PARITYERR GPIOIN pass expected 0 actual 0
# [Driver] Packet Complete, T=165000
# [Driver] Packet No. 13
# [Time = 165000][Monitor] Sampling output No. 11
# -------------------[Time = 165000][Scoreboard][Packet no. 11]-------------------
# [Transaction] Outputs: HADDR, HTRANS, HWDATA, HWRITE, HSEL, HREADY, GPIOIN, PARITYSEL
# [Transaction] Values: 00000000, 2, 3c103bf5, 1, 0, 1, 1c3cd, 0
# ------------------------------------------------------------------------------
# [Time = 165000][Scoreboard] GPIOIN Input Read pass expected c3cd actual c3cd
# [Time = 165000][Scoreboard] PARITYERR GPIOIN pass expected 0 actual 0
# [Driver] Packet Complete, T=175000
# [Driver] Packet No. 14
# [Time = 175000][Monitor] Sampling output No. 12
# -------------------[Time = 175000][Scoreboard][Packet no. 12]-------------------
# [Transaction] Outputs: HADDR, HTRANS, HWDATA, HWRITE, HSEL, HREADY, GPIOIN, PARITYSEL
# [Transaction] Values: 00000000, 2, de8e9527, 0, 1, 1, 1d490, 1
# ------------------------------------------------------------------------------
# [Time = 175000][Scoreboard] GPIOIN Input Read pass expected d490 actual d490
# [Time = 175000][Scoreboard] PARITYERR GPIOIN pass expected 0 actual 0
# [Driver] Packet Complete, T=185000
# [Driver] Packet No. 15
# [Time = 185000][Monitor] Sampling output No. 13
# -------------------[Time = 185000][Scoreboard][Packet no. 13]-------------------
# [Transaction] Outputs: HADDR, HTRANS, HWDATA, HWRITE, HSEL, HREADY, GPIOIN, PARITYSEL
# [Transaction] Values: 00000000, 2, cdcfd9cb, 1, 0, 1, 118aa, 1
# ------------------------------------------------------------------------------
# [Time = 185000][Scoreboard] GPIOIN Input Read pass expected 18aa actual 18aa
# [Time = 185000][Scoreboard] PARITYERR GPIOIN pass expected 0 actual 0
# [Driver] Packet Complete, T=195000
# [Driver] Packet No. 16
# [Time = 195000][Monitor] Sampling output No. 14
# -------------------[Time = 195000][Scoreboard][Packet no. 14]-------------------
# [Transaction] Outputs: HADDR, HTRANS, HWDATA, HWRITE, HSEL, HREADY, GPIOIN, PARITYSEL
# [Transaction] Values: 00000000, 2, e9c92a1d, 1, 0, 1, 0d3b9, 1
# ------------------------------------------------------------------------------
# [Time = 195000][Scoreboard] GPIOIN Input Read pass expected d3b9 actual d3b9
# [Time = 195000][Scoreboard] PARITYERR GPIOIN pass expected 1 actual 1
# [Driver] Packet Complete, T=205000
# [Driver] Packet No. 17
# [Time = 205000][Monitor] Sampling output No. 15
# -------------------[Time = 205000][Scoreboard][Packet no. 15]-------------------
# [Transaction] Outputs: HADDR, HTRANS, HWDATA, HWRITE, HSEL, HREADY, GPIOIN, PARITYSEL
# [Transaction] Values: 00000000, 2, ef68f790, 1, 0, 1, 1e294, 1
# ------------------------------------------------------------------------------
# [Time = 205000][Scoreboard] GPIOIN Input Read pass expected e294 actual e294
# [Time = 205000][Scoreboard] PARITYERR GPIOIN pass expected 1 actual 1
# [Driver] Packet Complete, T=215000
# [Driver] Packet No. 18
# [Time = 215000][Monitor] Sampling output No. 16
# -------------------[Time = 215000][Scoreboard][Packet no. 16]-------------------
# [Transaction] Outputs: HADDR, HTRANS, HWDATA, HWRITE, HSEL, HREADY, GPIOIN, PARITYSEL
# [Transaction] Values: 00000000, 2, f60da578, 1, 0, 1, 11361, 1
# ------------------------------------------------------------------------------
# [Time = 215000][Scoreboard] GPIOIN Input Read pass expected 1361 actual 1361
# [Time = 215000][Scoreboard] PARITYERR GPIOIN pass expected 0 actual 0
# [Driver] Packet Complete, T=225000
# [Driver] Packet No. 19
# [Time = 225000][Monitor] Sampling output No. 17
# -------------------[Time = 225000][Scoreboard][Packet no. 17]-------------------
# [Transaction] Outputs: HADDR, HTRANS, HWDATA, HWRITE, HSEL, HREADY, GPIOIN, PARITYSEL
# [Transaction] Values: 00000000, 2, 4c8aeef3, 0, 1, 1, 0fc72, 0
# ------------------------------------------------------------------------------
# [Time = 225000][Scoreboard] GPIOIN Input Read pass expected fc72 actual fc72
# [Time = 225000][Scoreboard] PARITYERR GPIOIN pass expected 0 actual 0
# [Driver] Packet Complete, T=235000
# [Driver] Packet No. 20
# [Time = 235000][Monitor] Sampling output No. 18
# -------------------[Time = 235000][Scoreboard][Packet no. 18]-------------------
# [Transaction] Outputs: HADDR, HTRANS, HWDATA, HWRITE, HSEL, HREADY, GPIOIN, PARITYSEL
# [Transaction] Values: 00000000, 2, 7fea99e1, 1, 0, 1, 186f0, 1
# ------------------------------------------------------------------------------
# [Time = 235000][Scoreboard] GPIOIN Input Read pass expected 86f0 actual 86f0
# [Time = 235000][Scoreboard] PARITYERR GPIOIN pass expected 1 actual 1
# [Driver] Packet Complete, T=245000
# [Driver] Packet No. 21
# [Time = 245000][Monitor] Sampling output No. 19
# -------------------[Time = 245000][Scoreboard][Packet no. 19]-------------------
# [Transaction] Outputs: HADDR, HTRANS, HWDATA, HWRITE, HSEL, HREADY, GPIOIN, PARITYSEL
# [Transaction] Values: 00000000, 2, d5a96a9e, 0, 0, 1, 1793c, 0
# ------------------------------------------------------------------------------
# [Time = 245000][Scoreboard] GPIOIN Input Read pass expected 793c actual 793c
# [Time = 245000][Scoreboard] PARITYERR GPIOIN pass expected 0 actual 0
# [Driver] Packet Complete, T=255000
# [Driver] Packet No. 22
# [Time = 255000][Monitor] Sampling output No. 20
# -------------------[Time = 255000][Scoreboard][Packet no. 20]-------------------
# [Transaction] Outputs: HADDR, HTRANS, HWDATA, HWRITE, HSEL, HREADY, GPIOIN, PARITYSEL
# [Transaction] Values: 00000000, 2, 1e220f11, 1, 0, 1, 0c7df, 0
# ------------------------------------------------------------------------------
# [Time = 255000][Scoreboard] GPIOIN Input Read pass expected c7df actual c7df
# [Time = 255000][Scoreboard] PARITYERR GPIOIN pass expected 0 actual 0
# [Driver] Packet Complete, T=265000
# [Driver] Packet No. 23
# [Time = 265000][Monitor] Sampling output No. 21
# -------------------[Time = 265000][Scoreboard][Packet no. 21]-------------------
# [Transaction] Outputs: HADDR, HTRANS, HWDATA, HWRITE, HSEL, HREADY, GPIOIN, PARITYSEL
# [Transaction] Values: 00000000, 2, 1665f5f1, 0, 1, 1, 1743c, 0
# ------------------------------------------------------------------------------
# [Time = 265000][Scoreboard] GPIOIN Input Read pass expected 743c actual 743c
# [Time = 265000][Scoreboard] PARITYERR GPIOIN pass expected 1 actual 1
# [Driver] Packet Complete, T=275000
# [Driver] Packet No. 24
# [Time = 275000][Monitor] Sampling output No. 22
# -------------------[Time = 275000][Scoreboard][Packet no. 22]-------------------
# [Transaction] Outputs: HADDR, HTRANS, HWDATA, HWRITE, HSEL, HREADY, GPIOIN, PARITYSEL
# [Transaction] Values: 00000000, 2, b01f2529, 0, 0, 1, 09f82, 1
# ------------------------------------------------------------------------------
# [Time = 275000][Scoreboard] GPIOIN Input Read pass expected 9f82 actual 9f82
# [Time = 275000][Scoreboard] PARITYERR GPIOIN pass expected 1 actual 1
# [Driver] Packet Complete, T=285000
# [Driver] Packet No. 25
# [Time = 285000][Monitor] Sampling output No. 23
# -------------------[Time = 285000][Scoreboard][Packet no. 23]-------------------
# [Transaction] Outputs: HADDR, HTRANS, HWDATA, HWRITE, HSEL, HREADY, GPIOIN, PARITYSEL
# [Transaction] Values: 00000000, 2, 7b9a6a49, 0, 1, 1, 01141, 1
# ------------------------------------------------------------------------------
# [Time = 285000][Scoreboard] GPIOIN Input Read pass expected 1141 actual 1141
# [Time = 285000][Scoreboard] PARITYERR GPIOIN pass expected 1 actual 1
# [Driver] Packet Complete, T=295000
# [Time = 295000][Monitor] Sampling output No. 24
# -------------------[Time = 295000][Scoreboard][Packet no. 24]-------------------
# [Transaction] Outputs: HADDR, HTRANS, HWDATA, HWRITE, HSEL, HREADY, GPIOIN, PARITYSEL
# [Transaction] Values: 00000000, 2, 0edc377c, 1, 0, 1, 1d463, 1
# ------------------------------------------------------------------------------
# [Time = 295000][Scoreboard] GPIOIN Input Read pass expected d463 actual d463
# [Time = 295000][Scoreboard] PARITYERR GPIOIN pass expected 0 actual 0
# [Time = 305000][Monitor] Sampling output No. 25
# -------------------[Time = 305000][Scoreboard][Packet no. 25]-------------------
# [Transaction] Outputs: HADDR, HTRANS, HWDATA, HWRITE, HSEL, HREADY, GPIOIN, PARITYSEL
# [Transaction] Values: 00000000, 2, e827711a, 1, 1, 1, 1eed8, 0
# ------------------------------------------------------------------------------
# [Time = 305000][Scoreboard] GPIOIN Input Read pass expected eed8 actual eed8
# [Time = 305000][Scoreboard] PARITYERR GPIOIN pass expected 1 actual 1
# [Driver] Packet No. 26
# [Time = 315000][Monitor] Sampling output No. 26
# -------------------[Time = 315000][Scoreboard][Packet no. 26]-------------------
# [Transaction] Outputs: HADDR, HTRANS, HWDATA, HWRITE, HSEL, HREADY, GPIOIN, PARITYSEL
# [Transaction] Values: 00000000, 2, 944cd4e2, 1, 0, 1, 1eed8, 0
# ------------------------------------------------------------------------------
# [Time = 315000][Scoreboard] GPIOIN Input Read pass expected eed8 actual eed8
# [Time = 315000][Scoreboard] PARITYERR GPIOIN pass expected 1 actual 1
# [Driver] Packet Complete, T=325000
# [Driver] Packet No. 27
# [Time = 325000][Monitor] Sampling output No. 27
# -------------------[Time = 325000][Scoreboard][Packet no. 27]-------------------
# [Transaction] Outputs: HADDR, HTRANS, HWDATA, HWRITE, HSEL, HREADY, GPIOIN, PARITYSEL
# [Transaction] Values: 00000004, 2, 00000001, 1, 1, 1, 1eed8, 0
# ------------------------------------------------------------------------------
# [Time = 325000][Scoreboard] GPIOIN Input Read pass expected eed8 actual eed8
# [Time = 325000][Scoreboard] PARITYERR GPIOIN pass expected 1 actual 1
# [Driver] Packet Complete, T=335000
# [Driver] Packet No. 28
# [Time = 335000][Monitor] Sampling output No. 28
# -------------------[Time = 335000][Scoreboard][Packet no. 28]-------------------
# [Transaction] Outputs: HADDR, HTRANS, HWDATA, HWRITE, HSEL, HREADY, GPIOIN, PARITYSEL
# [Transaction] Values: 00000000, 2, 00000001, 1, 1, 1, 05bd2, 0
# ------------------------------------------------------------------------------
# [Time = 335000][Scoreboard] Direction pass expected 00000001 actual 00000001
# [Time = 335000][Scoreboard] GPIOIN Input Read pass expected 5bd2 actual 5bd2
# [Time = 335000][Scoreboard] PARITYERR GPIOIN pass expected 1 actual 1
# [Driver] Packet Complete, T=345000
# [Driver] Packet No. 29
# [Time = 345000][Monitor] Sampling output No. 29
# -------------------[Time = 345000][Scoreboard][Packet no. 29]-------------------
# [Transaction] Outputs: HADDR, HTRANS, HWDATA, HWRITE, HSEL, HREADY, GPIOIN, PARITYSEL
# [Transaction] Values: 00000000, 2, 4b4564be, 0, 0, 1, 1eb62, 0
# ------------------------------------------------------------------------------
# [Time = 345000][Scoreboard] GPIOOUT Write pass expected 64be actual 64be
# [Time = 345000][Scoreboard] GPIOOUT Input Read pass expected 0 actual 0
# [Time = 345000][Scoreboard] PARITYERR GPIOOUT pass expected 0 actual 0
# [Driver] Packet Complete, T=355000
# [Driver] Packet No. 30
# [Time = 355000][Monitor] Sampling output No. 30
# -------------------[Time = 355000][Scoreboard][Packet no. 30]-------------------
# [Transaction] Outputs: HADDR, HTRANS, HWDATA, HWRITE, HSEL, HREADY, GPIOIN, PARITYSEL
# [Transaction] Values: 00000000, 2, 7eb6fb28, 0, 1, 1, 193d0, 0
# ------------------------------------------------------------------------------
# [Time = 355000][Scoreboard] GPIOOUT Input Read pass expected 64be actual 64be
# [Time = 355000][Scoreboard] PARITYERR GPIOOUT pass expected 0 actual 0
# [Driver] Packet Complete, T=365000
# [Driver] Packet No. 31
# [Time = 365000][Monitor] Sampling output No. 31
# -------------------[Time = 365000][Scoreboard][Packet no. 31]-------------------
# [Transaction] Outputs: HADDR, HTRANS, HWDATA, HWRITE, HSEL, HREADY, GPIOIN, PARITYSEL
# [Transaction] Values: 00000000, 2, c0ada83c, 1, 1, 1, 1dfb2, 1
# ------------------------------------------------------------------------------
# [Time = 365000][Scoreboard] GPIOOUT Input Read pass expected 64be actual 64be
# [Time = 365000][Scoreboard] PARITYERR GPIOOUT pass expected 1 actual 1
# [Driver] Packet Complete, T=375000
# [Driver] Packet No. 32
# [Time = 375000][Monitor] Sampling output No. 32
# -------------------[Time = 375000][Scoreboard][Packet no. 32]-------------------
# [Transaction] Outputs: HADDR, HTRANS, HWDATA, HWRITE, HSEL, HREADY, GPIOIN, PARITYSEL
# [Transaction] Values: 00000000, 2, 3721bbf9, 1, 0, 1, 04ca4, 1
# ------------------------------------------------------------------------------
# [Time = 375000][Scoreboard] GPIOOUT Write pass expected bbf9 actual bbf9
# [Time = 375000][Scoreboard] GPIOOUT Input Read pass expected 64be actual 64be
# [Time = 375000][Scoreboard] PARITYERR GPIOOUT pass expected 1 actual 1
# [Driver] Packet Complete, T=385000
# [Driver] Packet No. 33
# [Time = 385000][Monitor] Sampling output No. 33
# -------------------[Time = 385000][Scoreboard][Packet no. 33]-------------------
# [Transaction] Outputs: HADDR, HTRANS, HWDATA, HWRITE, HSEL, HREADY, GPIOIN, PARITYSEL
# [Transaction] Values: 00000000, 2, e3929a65, 0, 1, 1, 0e7bb, 1
# ------------------------------------------------------------------------------
# [Time = 385000][Scoreboard] GPIOOUT Input Read pass expected bbf9 actual bbf9
# [Time = 385000][Scoreboard] PARITYERR GPIOOUT pass expected 0 actual 0
# [Driver] Packet Complete, T=395000
# [Driver] Packet No. 34
# [Time = 395000][Monitor] Sampling output No. 34
# -------------------[Time = 395000][Scoreboard][Packet no. 34]-------------------
# [Transaction] Outputs: HADDR, HTRANS, HWDATA, HWRITE, HSEL, HREADY, GPIOIN, PARITYSEL
# [Transaction] Values: 00000000, 2, e2974200, 1, 1, 1, 0a84c, 1
# ------------------------------------------------------------------------------
# [Time = 395000][Scoreboard] GPIOOUT Input Read pass expected bbf9 actual bbf9
# [Time = 395000][Scoreboard] PARITYERR GPIOOUT pass expected 0 actual 0
# [Driver] Packet Complete, T=405000
# [Driver] Packet No. 35
# [Time = 405000][Monitor] Sampling output No. 35
# -------------------[Time = 405000][Scoreboard][Packet no. 35]-------------------
# [Transaction] Outputs: HADDR, HTRANS, HWDATA, HWRITE, HSEL, HREADY, GPIOIN, PARITYSEL
# [Transaction] Values: 00000000, 2, 96d6fb4f, 1, 0, 1, 1a5ae, 0
# ------------------------------------------------------------------------------
# [Time = 405000][Scoreboard] GPIOOUT Write pass expected fb4f actual fb4f
# [Time = 405000][Scoreboard] GPIOOUT Input Read pass expected bbf9 actual bbf9
# [Time = 405000][Scoreboard] PARITYERR GPIOOUT pass expected 1 actual 1
# [Driver] Packet Complete, T=415000
# [Driver] Packet No. 36
# [Time = 415000][Monitor] Sampling output No. 36
# -------------------[Time = 415000][Scoreboard][Packet no. 36]-------------------
# [Transaction] Outputs: HADDR, HTRANS, HWDATA, HWRITE, HSEL, HREADY, GPIOIN, PARITYSEL
# [Transaction] Values: 00000000, 2, 466ccf3d, 0, 1, 1, 07bfa, 1
# ------------------------------------------------------------------------------
# [Time = 415000][Scoreboard] GPIOOUT Input Read pass expected fb4f actual fb4f
# [Time = 415000][Scoreboard] PARITYERR GPIOOUT pass expected 1 actual 1
# [Driver] Packet Complete, T=425000
# [Driver] Packet No. 37
# [Time = 425000][Monitor] Sampling output No. 37
# -------------------[Time = 425000][Scoreboard][Packet no. 37]-------------------
# [Transaction] Outputs: HADDR, HTRANS, HWDATA, HWRITE, HSEL, HREADY, GPIOIN, PARITYSEL
# [Transaction] Values: 00000000, 2, c48727dd, 0, 1, 1, 0477c, 0
# ------------------------------------------------------------------------------
# [Time = 425000][Scoreboard] GPIOOUT Input Read pass expected fb4f actual fb4f
# [Time = 425000][Scoreboard] PARITYERR GPIOOUT pass expected 0 actual 0
# [Driver] Packet Complete, T=435000
# [Driver] Packet No. 38
# [Time = 435000][Monitor] Sampling output No. 38
# -------------------[Time = 435000][Scoreboard][Packet no. 38]-------------------
# [Transaction] Outputs: HADDR, HTRANS, HWDATA, HWRITE, HSEL, HREADY, GPIOIN, PARITYSEL
# [Transaction] Values: 00000000, 2, e31265da, 0, 0, 1, 17100, 1
# ------------------------------------------------------------------------------
# [Time = 435000][Scoreboard] GPIOOUT Input Read pass expected fb4f actual fb4f
# [Time = 435000][Scoreboard] PARITYERR GPIOOUT pass expected 1 actual 1
# [Driver] Packet Complete, T=445000
# [Driver] Packet No. 39
# [Time = 445000][Monitor] Sampling output No. 39
# -------------------[Time = 445000][Scoreboard][Packet no. 39]-------------------
# [Transaction] Outputs: HADDR, HTRANS, HWDATA, HWRITE, HSEL, HREADY, GPIOIN, PARITYSEL
# [Transaction] Values: 00000000, 2, a2a7355c, 0, 1, 1, 07ede, 1
# ------------------------------------------------------------------------------
# [Time = 445000][Scoreboard] GPIOOUT Input Read pass expected fb4f actual fb4f
# [Time = 445000][Scoreboard] PARITYERR GPIOOUT pass expected 1 actual 1
# [Driver] Packet Complete, T=455000
# [Driver] Packet No. 40
# [Time = 455000][Monitor] Sampling output No. 40
# -------------------[Time = 455000][Scoreboard][Packet no. 40]-------------------
# [Transaction] Outputs: HADDR, HTRANS, HWDATA, HWRITE, HSEL, HREADY, GPIOIN, PARITYSEL
# [Transaction] Values: 00000000, 2, 4cb6eeff, 0, 0, 1, 1c341, 0
# ------------------------------------------------------------------------------
# [Time = 455000][Scoreboard] GPIOOUT Input Read pass expected fb4f actual fb4f
# [Time = 455000][Scoreboard] PARITYERR GPIOOUT pass expected 0 actual 0
# [Driver] Packet Complete, T=465000
# [Driver] Packet No. 41
# [Time = 465000][Monitor] Sampling output No. 41
# -------------------[Time = 465000][Scoreboard][Packet no. 41]-------------------
# [Transaction] Outputs: HADDR, HTRANS, HWDATA, HWRITE, HSEL, HREADY, GPIOIN, PARITYSEL
# [Transaction] Values: 00000000, 2, 953123b7, 1, 1, 1, 0d4a1, 1
# ------------------------------------------------------------------------------
# [Time = 465000][Scoreboard] GPIOOUT Input Read pass expected fb4f actual fb4f
# [Time = 465000][Scoreboard] PARITYERR GPIOOUT pass expected 1 actual 1
# [Driver] Packet Complete, T=475000
# [Driver] Packet No. 42
# [Time = 475000][Monitor] Sampling output No. 42
# -------------------[Time = 475000][Scoreboard][Packet no. 42]-------------------
# [Transaction] Outputs: HADDR, HTRANS, HWDATA, HWRITE, HSEL, HREADY, GPIOIN, PARITYSEL
# [Transaction] Values: 00000000, 2, 47618f7e, 1, 0, 1, 19395, 0
# ------------------------------------------------------------------------------
# [Time = 475000][Scoreboard] GPIOOUT Write pass expected 8f7e actual 8f7e
# [Time = 475000][Scoreboard] GPIOOUT Input Read pass expected fb4f actual fb4f
# [Time = 475000][Scoreboard] PARITYERR GPIOOUT pass expected 0 actual 0
# [Driver] Packet Complete, T=485000
# [Driver] Packet No. 43
# [Time = 485000][Monitor] Sampling output No. 43
# -------------------[Time = 485000][Scoreboard][Packet no. 43]-------------------
# [Transaction] Outputs: HADDR, HTRANS, HWDATA, HWRITE, HSEL, HREADY, GPIOIN, PARITYSEL
# [Transaction] Values: 00000000, 2, eb18349f, 1, 1, 1, 175f7, 1
# ------------------------------------------------------------------------------
# [Time = 485000][Scoreboard] GPIOOUT Input Read pass expected 8f7e actual 8f7e
# [Time = 485000][Scoreboard] PARITYERR GPIOOUT pass expected 1 actual 1
# [Driver] Packet Complete, T=495000
# [Driver] Packet No. 44
# [Time = 495000][Monitor] Sampling output No. 44
# -------------------[Time = 495000][Scoreboard][Packet no. 44]-------------------
# [Transaction] Outputs: HADDR, HTRANS, HWDATA, HWRITE, HSEL, HREADY, GPIOIN, PARITYSEL
# [Transaction] Values: 00000000, 2, 42fd47cd, 1, 1, 1, 1f4d0, 0
# ------------------------------------------------------------------------------
# [Time = 495000][Scoreboard] GPIOOUT Write pass expected 47cd actual 47cd
# [Time = 495000][Scoreboard] GPIOOUT Input Read pass expected 8f7e actual 8f7e
# [Time = 495000][Scoreboard] PARITYERR GPIOOUT pass expected 0 actual 0
# [Driver] Packet Complete, T=505000
# [Driver] Packet No. 45
# [Time = 505000][Monitor] Sampling output No. 45
# -------------------[Time = 505000][Scoreboard][Packet no. 45]-------------------
# [Transaction] Outputs: HADDR, HTRANS, HWDATA, HWRITE, HSEL, HREADY, GPIOIN, PARITYSEL
# [Transaction] Values: 00000000, 2, 69409058, 1, 0, 1, 1ce88, 1
# ------------------------------------------------------------------------------
# [Time = 505000][Scoreboard] GPIOOUT Write pass expected 9058 actual 9058
# [Time = 505000][Scoreboard] GPIOOUT Input Read pass expected 47cd actual 47cd
# [Time = 505000][Scoreboard] PARITYERR GPIOOUT pass expected 1 actual 1
# [Driver] Packet Complete, T=515000
# [Driver] Packet No. 46
# [Time = 515000][Monitor] Sampling output No. 46
# -------------------[Time = 515000][Scoreboard][Packet no. 46]-------------------
# [Transaction] Outputs: HADDR, HTRANS, HWDATA, HWRITE, HSEL, HREADY, GPIOIN, PARITYSEL
# [Transaction] Values: 00000000, 2, 7828fded, 0, 1, 1, 0e539, 1
# ------------------------------------------------------------------------------
# [Time = 515000][Scoreboard] GPIOOUT Input Read pass expected 9058 actual 9058
# [Time = 515000][Scoreboard] PARITYERR GPIOOUT pass expected 0 actual 0
# [Driver] Packet Complete, T=525000
# [Driver] Packet No. 47
# [Time = 525000][Monitor] Sampling output No. 47
# -------------------[Time = 525000][Scoreboard][Packet no. 47]-------------------
# [Transaction] Outputs: HADDR, HTRANS, HWDATA, HWRITE, HSEL, HREADY, GPIOIN, PARITYSEL
# [Transaction] Values: 00000000, 2, 7d43b29f, 1, 0, 1, 1750e, 0
# ------------------------------------------------------------------------------
# [Time = 525000][Scoreboard] GPIOOUT Input Read pass expected 9058 actual 9058
# [Time = 525000][Scoreboard] PARITYERR GPIOOUT pass expected 1 actual 1
# [Driver] Packet Complete, T=535000
# [Driver] Packet No. 48
# [Time = 535000][Monitor] Sampling output No. 48
# -------------------[Time = 535000][Scoreboard][Packet no. 48]-------------------
# [Transaction] Outputs: HADDR, HTRANS, HWDATA, HWRITE, HSEL, HREADY, GPIOIN, PARITYSEL
# [Transaction] Values: 00000000, 2, 5a772707, 0, 1, 1, 138c9, 0
# ------------------------------------------------------------------------------
# [Time = 535000][Scoreboard] GPIOOUT Input Read pass expected 9058 actual 9058
# [Time = 535000][Scoreboard] PARITYERR GPIOOUT pass expected 1 actual 1
# [Driver] Packet Complete, T=545000
# [Driver] Packet No. 49
# [Time = 545000][Monitor] Sampling output No. 49
# -------------------[Time = 545000][Scoreboard][Packet no. 49]-------------------
# [Transaction] Outputs: HADDR, HTRANS, HWDATA, HWRITE, HSEL, HREADY, GPIOIN, PARITYSEL
# [Transaction] Values: 00000000, 2, 5175dc46, 1, 1, 1, 0edbd, 1
# ------------------------------------------------------------------------------
# [Time = 545000][Scoreboard] GPIOOUT Input Read pass expected 9058 actual 9058
# [Time = 545000][Scoreboard] PARITYERR GPIOOUT pass expected 0 actual 0
# [Driver] Packet Complete, T=555000
# [Driver] Packet No. 50
# [Time = 555000][Monitor] Sampling output No. 50
# -------------------[Time = 555000][Scoreboard][Packet no. 50]-------------------
# [Transaction] Outputs: HADDR, HTRANS, HWDATA, HWRITE, HSEL, HREADY, GPIOIN, PARITYSEL
# [Transaction] Values: 00000000, 2, 7e2ca0a1, 0, 0, 1, 1dc74, 1
# ------------------------------------------------------------------------------
# [Time = 555000][Scoreboard] GPIOOUT Write pass expected a0a1 actual a0a1
# [Time = 555000][Scoreboard] GPIOOUT Input Read pass expected 9058 actual 9058
# [Time = 555000][Scoreboard] PARITYERR GPIOOUT pass expected 0 actual 0
# [Driver] Packet Complete, T=565000
# [Time = 565000][Driver] Packet No. 51
# [Time = 565000][Monitor] Sampling output No. 51
# -------------------[Time = 565000][Scoreboard][Packet no. 51]-------------------
# [Transaction] Outputs: HADDR, HTRANS, HWDATA, HWRITE, HSEL, HREADY, GPIOIN, PARITYSEL
# [Transaction] Values: 00000000, 2, 1531a7d9, 0, 0, 1, 050d1, 0
# ------------------------------------------------------------------------------
# [Time = 565000][Scoreboard] GPIOOUT Input Read pass expected a0a1 actual a0a1
# [Time = 565000][Scoreboard] PARITYERR GPIOOUT pass expected 1 actual 1
# [Time = 575000][Driver] Packet Complete
# [Time = 575000][Driver] Packet No. 52
# [Time = 575000][Monitor] Sampling output No. 52
# -------------------[Time = 575000][Scoreboard][Packet no. 52]-------------------
# [Transaction] Outputs: HADDR, HTRANS, HWDATA, HWRITE, HSEL, HREADY, GPIOIN, PARITYSEL
# [Transaction] Values: 00000000, 2, 91afdb6f, 0, 0, 1, 1d698, 1
# ------------------------------------------------------------------------------
# [Time = 575000][Scoreboard] GPIOOUT Input Read pass expected a0a1 actual a0a1
# [Time = 575000][Scoreboard] PARITYERR GPIOOUT pass expected 0 actual 0
# [Time = 585000][Driver] Packet Complete
# [Time = 585000][Driver] Packet No. 53
# [Time = 585000][Monitor] Sampling output No. 53
# -------------------[Time = 585000][Scoreboard][Packet no. 53]-------------------
# [Transaction] Outputs: HADDR, HTRANS, HWDATA, HWRITE, HSEL, HREADY, GPIOIN, PARITYSEL
# [Transaction] Values: 00000000, 2, f1be27ab, 0, 0, 1, 0d290, 0
# ------------------------------------------------------------------------------
# [Time = 585000][Scoreboard] GPIOOUT Input Read pass expected a0a1 actual a0a1
# [Time = 585000][Scoreboard] PARITYERR GPIOOUT pass expected 1 actual 1
# [Time = 595000][Driver] Packet Complete
# [Time = 595000][Driver] Packet No. 54
# [Time = 595000][Monitor] Sampling output No. 54
# -------------------[Time = 595000][Scoreboard][Packet no. 54]-------------------
# [Transaction] Outputs: HADDR, HTRANS, HWDATA, HWRITE, HSEL, HREADY, GPIOIN, PARITYSEL
# [Transaction] Values: 00000004, 2, ce5abeeb, 1, 1, 1, 1c515, 1
# ------------------------------------------------------------------------------
# [Time = 595000][Scoreboard] GPIOOUT Input Read pass expected a0a1 actual a0a1
# [Time = 595000][Scoreboard] PARITYERR GPIOOUT pass expected 0 actual 0
# [Time = 605000][Driver] Packet Complete
# [Time = 605000][Driver] Packet No. 55
# [Time = 605000][Monitor] Sampling output No. 55
# -------------------[Time = 605000][Scoreboard][Packet no. 55]-------------------
# [Transaction] Outputs: HADDR, HTRANS, HWDATA, HWRITE, HSEL, HREADY, GPIOIN, PARITYSEL
# [Transaction] Values: 4c892a83, 2, 00000000, 1, 1, 1, 1fda8, 0
# ------------------------------------------------------------------------------
# [Time = 605000][Scoreboard] Direction pass expected 00000000 actual 00000000
# [Time = 605000][Scoreboard] GPIOOUT Input Read pass expected a0a1 actual a0a1
# [Time = 605000][Scoreboard] PARITYERR GPIOOUT pass expected 1 actual 1
# [Time = 615000][Driver] Packet Complete
# [Time = 615000][Driver] Packet No. 56
# [Time = 615000][Monitor] Sampling output No. 56
# -------------------[Time = 615000][Scoreboard][Packet no. 56]-------------------
# [Transaction] Outputs: HADDR, HTRANS, HWDATA, HWRITE, HSEL, HREADY, GPIOIN, PARITYSEL
# [Transaction] Values: 6bccb5db, 2, 00c4d130, 1, 1, 1, 03663, 0
# ------------------------------------------------------------------------------
# [Time = 615000][Scoreboard] GPIOIN Input Read pass expected 3663 actual 3663
# [Time = 615000][Scoreboard] PARITYERR GPIOIN pass expected 0 actual 0
# [Time = 625000][Driver] Packet Complete
# [Time = 625000][Driver] Packet No. 57
# [Time = 625000][Monitor] Sampling output No. 57
# -------------------[Time = 625000][Scoreboard][Packet no. 57]-------------------
# [Transaction] Outputs: HADDR, HTRANS, HWDATA, HWRITE, HSEL, HREADY, GPIOIN, PARITYSEL
# [Transaction] Values: 2b12d8e6, 2, 58d46684, 1, 1, 1, 1de14, 1
# ------------------------------------------------------------------------------
# [Time = 625000][Scoreboard] GPIOIN Input Read pass expected de14 actual de14
# [Time = 625000][Scoreboard] PARITYERR GPIOIN pass expected 0 actual 0
# [Time = 635000][Driver] Packet Complete
# [Time = 635000][Driver] Packet No. 58
# [Time = 635000][Monitor] Sampling output No. 58
# -------------------[Time = 635000][Scoreboard][Packet no. 58]-------------------
# [Transaction] Outputs: HADDR, HTRANS, HWDATA, HWRITE, HSEL, HREADY, GPIOIN, PARITYSEL
# [Transaction] Values: bbc0e108, 2, bedc9036, 1, 0, 1, 1222e, 0
# ------------------------------------------------------------------------------
# [Time = 635000][Scoreboard] GPIOIN Input Read pass expected 222e actual 222e
# [Time = 635000][Scoreboard] PARITYERR GPIOIN pass expected 1 actual 1
# [Time = 645000][Driver] Packet Complete
# [Time = 645000][Driver] Packet No. 59
# [Time = 645000][Monitor] Sampling output No. 59
# -------------------[Time = 645000][Scoreboard][Packet no. 59]-------------------
# [Transaction] Outputs: HADDR, HTRANS, HWDATA, HWRITE, HSEL, HREADY, GPIOIN, PARITYSEL
# [Transaction] Values: 997f057e, 2, 205853ed, 1, 1, 1, 1957a, 1
# ------------------------------------------------------------------------------
# [Time = 645000][Scoreboard] GPIOIN Input Read pass expected 957a actual 957a
# [Time = 645000][Scoreboard] PARITYERR GPIOIN pass expected 1 actual 1
# [Time = 655000][Driver] Packet Complete
# [Time = 655000][Driver] Packet No. 60
# [Time = 655000][Monitor] Sampling output No. 60
# -------------------[Time = 655000][Scoreboard][Packet no. 60]-------------------
# [Transaction] Outputs: HADDR, HTRANS, HWDATA, HWRITE, HSEL, HREADY, GPIOIN, PARITYSEL
# [Transaction] Values: dbb5c203, 2, 3dba40dd, 0, 1, 1, 05836, 1
# ------------------------------------------------------------------------------
# [Time = 655000][Scoreboard] GPIOIN Input Read pass expected 5836 actual 5836
# [Time = 655000][Scoreboard] PARITYERR GPIOIN pass expected 0 actual 0
# [Time = 665000][Driver] Packet Complete
# [Time = 665000][Driver] Packet No. 61
# [Time = 665000][Monitor] Sampling output No. 61
# -------------------[Time = 665000][Scoreboard][Packet no. 61]-------------------
# [Transaction] Outputs: HADDR, HTRANS, HWDATA, HWRITE, HSEL, HREADY, GPIOIN, PARITYSEL
# [Transaction] Values: 89f3be71, 2, 687b7f38, 0, 1, 1, 035d6, 1
# ------------------------------------------------------------------------------
# [Time = 665000][Scoreboard] GPIOIN Input Read pass expected 35d6 actual 35d6
# [Time = 665000][Scoreboard] PARITYERR GPIOIN pass expected 0 actual 0
# [Time = 675000][Driver] Packet Complete
# [Time = 675000][Driver] Packet No. 62
# [Time = 675000][Monitor] Sampling output No. 62
# -------------------[Time = 675000][Scoreboard][Packet no. 62]-------------------
# [Transaction] Outputs: HADDR, HTRANS, HWDATA, HWRITE, HSEL, HREADY, GPIOIN, PARITYSEL
# [Transaction] Values: 0ad9f2a4, 2, 028195d2, 1, 1, 1, 01d00, 1
# ------------------------------------------------------------------------------
# [Time = 675000][Scoreboard] GPIOIN Input Read pass expected 1d00 actual 1d00
# [Time = 675000][Scoreboard] PARITYERR GPIOIN pass expected 1 actual 1
# [Time = 685000][Driver] Packet Complete
# [Time = 685000][Driver] Packet No. 63
# [Time = 685000][Monitor] Sampling output No. 63
# -------------------[Time = 685000][Scoreboard][Packet no. 63]-------------------
# [Transaction] Outputs: HADDR, HTRANS, HWDATA, HWRITE, HSEL, HREADY, GPIOIN, PARITYSEL
# [Transaction] Values: ceab82c8, 2, 02a6574e, 0, 0, 1, 06415, 1
# ------------------------------------------------------------------------------
# [Time = 685000][Scoreboard] GPIOIN Input Read pass expected 6415 actual 6415
# [Time = 685000][Scoreboard] PARITYERR GPIOIN pass expected 1 actual 1
# [Time = 695000][Driver] Packet Complete
# [Time = 695000][Driver] Packet No. 64
# [Time = 695000][Monitor] Sampling output No. 64
# -------------------[Time = 695000][Scoreboard][Packet no. 64]-------------------
# [Transaction] Outputs: HADDR, HTRANS, HWDATA, HWRITE, HSEL, HREADY, GPIOIN, PARITYSEL
# [Transaction] Values: 00000004, 2, 1ab3fd61, 1, 1, 1, 1b43b, 1
# ------------------------------------------------------------------------------
# [Time = 695000][Scoreboard] GPIOIN Input Read pass expected b43b actual b43b
# [Time = 695000][Scoreboard] PARITYERR GPIOIN pass expected 1 actual 1
# [Time = 705000][Driver] Packet Complete
# [Time = 705000][Driver] Packet No. 65
# [Time = 705000][Monitor] Sampling output No. 65
# -------------------[Time = 705000][Scoreboard][Packet no. 65]-------------------
# [Transaction] Outputs: HADDR, HTRANS, HWDATA, HWRITE, HSEL, HREADY, GPIOIN, PARITYSEL
# [Transaction] Values: 8ef2ed0a, 2, 00000001, 1, 0, 1, 0f0a5, 0
# ------------------------------------------------------------------------------
# [Time = 705000][Scoreboard] Direction pass expected 00000001 actual 00000001
# [Time = 705000][Scoreboard] GPIOIN Input Read pass expected f0a5 actual f0a5
# [Time = 705000][Scoreboard] PARITYERR GPIOIN pass expected 0 actual 0
# [Time = 715000][Driver] Packet Complete
# [Time = 715000][Driver] Packet No. 66
# [Time = 715000][Monitor] Sampling output No. 66
# -------------------[Time = 715000][Scoreboard][Packet no. 66]-------------------
# [Transaction] Outputs: HADDR, HTRANS, HWDATA, HWRITE, HSEL, HREADY, GPIOIN, PARITYSEL
# [Transaction] Values: 85787a63, 2, 4e5fc781, 0, 0, 1, 14bf7, 0
# ------------------------------------------------------------------------------
# [Time = 715000][Scoreboard] GPIOOUT Input Read pass expected a0a1 actual a0a1
# [Time = 715000][Scoreboard] PARITYERR GPIOOUT pass expected 1 actual 1
# [Time = 725000][Driver] Packet Complete
# [Time = 725000][Driver] Packet No. 67
# [Time = 725000][Monitor] Sampling output No. 67
# -------------------[Time = 725000][Scoreboard][Packet no. 67]-------------------
# [Transaction] Outputs: HADDR, HTRANS, HWDATA, HWRITE, HSEL, HREADY, GPIOIN, PARITYSEL
# [Transaction] Values: de8ee315, 2, 90c8a387, 0, 1, 1, 11119, 1
# ------------------------------------------------------------------------------
# [Time = 725000][Scoreboard] GPIOOUT Input Read pass expected a0a1 actual a0a1
# [Time = 725000][Scoreboard] PARITYERR GPIOOUT pass expected 0 actual 0
# [Time = 735000][Driver] Packet Complete
# [Time = 735000][Driver] Packet No. 68
# [Time = 735000][Monitor] Sampling output No. 68
# -------------------[Time = 735000][Scoreboard][Packet no. 68]-------------------
# [Transaction] Outputs: HADDR, HTRANS, HWDATA, HWRITE, HSEL, HREADY, GPIOIN, PARITYSEL
# [Transaction] Values: fade70d6, 2, 993c0620, 0, 0, 1, 046d9, 0
# ------------------------------------------------------------------------------
# [Time = 735000][Scoreboard] GPIOOUT Input Read pass expected a0a1 actual a0a1
# [Time = 735000][Scoreboard] PARITYERR GPIOOUT pass expected 1 actual 1
# [Time = 745000][Driver] Packet Complete
# [Time = 745000][Driver] Packet No. 69
# [Time = 745000][Monitor] Sampling output No. 69
# -------------------[Time = 745000][Scoreboard][Packet no. 69]-------------------
# [Transaction] Outputs: HADDR, HTRANS, HWDATA, HWRITE, HSEL, HREADY, GPIOIN, PARITYSEL
# [Transaction] Values: b6d97e7d, 2, deace411, 0, 0, 1, 1b45f, 0
# ------------------------------------------------------------------------------
# [Time = 745000][Scoreboard] GPIOOUT Input Read pass expected a0a1 actual a0a1
# [Time = 745000][Scoreboard] PARITYERR GPIOOUT pass expected 1 actual 1
# [Time = 755000][Driver] Packet Complete
# [Time = 755000][Driver] Packet No. 70
# [Time = 755000][Monitor] Sampling output No. 70
# -------------------[Time = 755000][Scoreboard][Packet no. 70]-------------------
# [Transaction] Outputs: HADDR, HTRANS, HWDATA, HWRITE, HSEL, HREADY, GPIOIN, PARITYSEL
# [Transaction] Values: 9e48f8ff, 2, c252ca5c, 1, 1, 1, 1be6b, 0
# ------------------------------------------------------------------------------
# [Time = 755000][Scoreboard] GPIOOUT Input Read pass expected a0a1 actual a0a1
# [Time = 755000][Scoreboard] PARITYERR GPIOOUT pass expected 1 actual 1
# [Time = 765000][Driver] Packet Complete
# [Time = 765000][Driver] Packet No. 71
# [Time = 765000][Monitor] Sampling output No. 71
# -------------------[Time = 765000][Scoreboard][Packet no. 71]-------------------
# [Transaction] Outputs: HADDR, HTRANS, HWDATA, HWRITE, HSEL, HREADY, GPIOIN, PARITYSEL
# [Transaction] Values: aa5f1ba2, 2, 90843327, 1, 0, 1, 18c39, 0
# ------------------------------------------------------------------------------
# [Time = 765000][Scoreboard] GPIOOUT Input Read pass expected a0a1 actual a0a1
# [Time = 765000][Scoreboard] PARITYERR GPIOOUT pass expected 1 actual 1
# [Time = 775000][Driver] Packet Complete
# [Time = 775000][Driver] Packet No. 72
# [Time = 775000][Monitor] Sampling output No. 72
# -------------------[Time = 775000][Scoreboard][Packet no. 72]-------------------
# [Transaction] Outputs: HADDR, HTRANS, HWDATA, HWRITE, HSEL, HREADY, GPIOIN, PARITYSEL
# [Transaction] Values: ce7729d4, 2, 2fed3a41, 0, 1, 1, 01514, 0
# ------------------------------------------------------------------------------
# [Time = 775000][Scoreboard] GPIOOUT Input Read pass expected a0a1 actual a0a1
# [Time = 775000][Scoreboard] PARITYERR GPIOOUT pass expected 1 actual 1
# [Time = 785000][Driver] Packet Complete
# [Time = 785000][Driver] Packet No. 73
# [Time = 785000][Monitor] Sampling output No. 73
# -------------------[Time = 785000][Scoreboard][Packet no. 73]-------------------
# [Transaction] Outputs: HADDR, HTRANS, HWDATA, HWRITE, HSEL, HREADY, GPIOIN, PARITYSEL
# [Transaction] Values: 722fbe98, 2, e027d537, 1, 1, 1, 115d8, 1
# ------------------------------------------------------------------------------
# [Time = 785000][Scoreboard] GPIOOUT Input Read pass expected a0a1 actual a0a1
# [Time = 785000][Scoreboard] PARITYERR GPIOOUT pass expected 0 actual 0
# [Time = 795000][Driver] Packet Complete
# [Time = 795000][Driver] Packet No. 74
# [Time = 795000][Monitor] Sampling output No. 74
# -------------------[Time = 795000][Scoreboard][Packet no. 74]-------------------
# [Transaction] Outputs: HADDR, HTRANS, HWDATA, HWRITE, HSEL, HREADY, GPIOIN, PARITYSEL
# [Transaction] Values: 00000004, 2, 9224105a, 1, 0, 1, 09c02, 1
# ------------------------------------------------------------------------------
# [Time = 795000][Scoreboard] GPIOOUT Input Read pass expected a0a1 actual a0a1
# [Time = 795000][Scoreboard] PARITYERR GPIOOUT pass expected 0 actual 0
# [Time = 805000][Driver] Packet Complete
# [Time = 805000][Driver] Packet No. 75
# [Time = 805000][Monitor] Sampling output No. 75
# -------------------[Time = 805000][Scoreboard][Packet no. 75]-------------------
# [Transaction] Outputs: HADDR, HTRANS, HWDATA, HWRITE, HSEL, HREADY, GPIOIN, PARITYSEL
# [Transaction] Values: 7b7eeaca, 2, 00000000, 1, 1, 1, 1d90d, 0
# ------------------------------------------------------------------------------
# [Time = 805000][Scoreboard] GPIOOUT Input Read pass expected a0a1 actual a0a1
# [Time = 805000][Scoreboard] PARITYERR GPIOOUT pass expected 1 actual 1
# [Time = 815000][Driver] Packet Complete
# [Time = 815000][Driver] Packet No. 76
# [Time = 815000][Monitor] Sampling output No. 76
# -------------------[Time = 815000][Scoreboard][Packet no. 76]-------------------
# [Transaction] Outputs: HADDR, HTRANS, HWDATA, HWRITE, HSEL, HREADY, GPIOIN, PARITYSEL
# [Transaction] Values: 8f20b444, 2, 1e47fe3d, 1, 1, 1, 1c5b7, 1
# ------------------------------------------------------------------------------
# [Time = 815000][Scoreboard] GPIOOUT Input Read pass expected a0a1 actual a0a1
# [Time = 815000][Scoreboard] PARITYERR GPIOOUT pass expected 0 actual 0
# [Time = 825000][Driver] Packet Complete
# [Time = 825000][Driver] Packet No. 77
# [Time = 825000][Monitor] Sampling output No. 77
# -------------------[Time = 825000][Scoreboard][Packet no. 77]-------------------
# [Transaction] Outputs: HADDR, HTRANS, HWDATA, HWRITE, HSEL, HREADY, GPIOIN, PARITYSEL
# [Transaction] Values: 48e6c407, 2, 8733528b, 0, 1, 1, 14c0b, 1
# ------------------------------------------------------------------------------
# [Time = 825000][Scoreboard] GPIOOUT Input Read pass expected a0a1 actual a0a1
# [Time = 825000][Scoreboard] PARITYERR GPIOOUT pass expected 0 actual 0
# [Time = 835000][Driver] Packet Complete
# [Time = 835000][Driver] Packet No. 78
# [Time = 835000][Monitor] Sampling output No. 78
# -------------------[Time = 835000][Scoreboard][Packet no. 78]-------------------
# [Transaction] Outputs: HADDR, HTRANS, HWDATA, HWRITE, HSEL, HREADY, GPIOIN, PARITYSEL
# [Transaction] Values: 1cd1d4b8, 2, 5035534b, 1, 1, 1, 0ec95, 1
# ------------------------------------------------------------------------------
# [Time = 835000][Scoreboard] GPIOOUT Input Read pass expected a0a1 actual a0a1
# [Time = 835000][Scoreboard] PARITYERR GPIOOUT pass expected 0 actual 0
# [Time = 845000][Driver] Packet Complete
# [Time = 845000][Driver] Packet No. 79
# [Time = 845000][Monitor] Sampling output No. 79
# -------------------[Time = 845000][Scoreboard][Packet no. 79]-------------------
# [Transaction] Outputs: HADDR, HTRANS, HWDATA, HWRITE, HSEL, HREADY, GPIOIN, PARITYSEL
# [Transaction] Values: b48a9fcd, 2, f82bf047, 0, 1, 1, 1c64e, 1
# ------------------------------------------------------------------------------
# [Time = 845000][Scoreboard] GPIOOUT Input Read pass expected a0a1 actual a0a1
# [Time = 845000][Scoreboard] PARITYERR GPIOOUT pass expected 0 actual 0
# [Time = 855000][Driver] Packet Complete
# [Time = 855000][Driver] Packet No. 80
# [Time = 855000][Monitor] Sampling output No. 80
# -------------------[Time = 855000][Scoreboard][Packet no. 80]-------------------
# [Transaction] Outputs: HADDR, HTRANS, HWDATA, HWRITE, HSEL, HREADY, GPIOIN, PARITYSEL
# [Transaction] Values: c2e6eb5c, 2, cd883da8, 1, 1, 1, 1b51d, 0
# ------------------------------------------------------------------------------
# [Time = 855000][Scoreboard] GPIOOUT Input Read pass expected a0a1 actual a0a1
# [Time = 855000][Scoreboard] PARITYERR GPIOOUT pass expected 1 actual 1
# [Time = 865000][Driver] Packet Complete
# [Time = 865000][Driver] Packet No. 81
# [Time = 865000][Monitor] Sampling output No. 81
# -------------------[Time = 865000][Scoreboard][Packet no. 81]-------------------
# [Transaction] Outputs: HADDR, HTRANS, HWDATA, HWRITE, HSEL, HREADY, GPIOIN, PARITYSEL
# [Transaction] Values: 46e2c888, 2, de558890, 0, 1, 1, 08f57, 0
# ------------------------------------------------------------------------------
# [Time = 865000][Scoreboard] GPIOOUT Input Read pass expected a0a1 actual a0a1
# [Time = 865000][Scoreboard] PARITYERR GPIOOUT pass expected 1 actual 1
# [Time = 875000][Driver] Packet Complete
# [Time = 875000][Driver] Packet No. 82
# [Time = 875000][Monitor] Sampling output No. 82
# -------------------[Time = 875000][Scoreboard][Packet no. 82]-------------------
# [Transaction] Outputs: HADDR, HTRANS, HWDATA, HWRITE, HSEL, HREADY, GPIOIN, PARITYSEL
# [Transaction] Values: 284ab9e4, 2, b8f0fe6c, 1, 1, 1, 13142, 0
# ------------------------------------------------------------------------------
# [Time = 875000][Scoreboard] GPIOOUT Input Read pass expected a0a1 actual a0a1
# [Time = 875000][Scoreboard] PARITYERR GPIOOUT pass expected 1 actual 1
# [Time = 885000][Driver] Packet Complete
# [Time = 885000][Driver] Packet No. 83
# [Time = 885000][Monitor] Sampling output No. 83
# -------------------[Time = 885000][Scoreboard][Packet no. 83]-------------------
# [Transaction] Outputs: HADDR, HTRANS, HWDATA, HWRITE, HSEL, HREADY, GPIOIN, PARITYSEL
# [Transaction] Values: d3749531, 2, 9a52ef1c, 1, 0, 1, 1a804, 0
# ------------------------------------------------------------------------------
# [Time = 885000][Scoreboard] GPIOOUT Input Read pass expected a0a1 actual a0a1
# [Time = 885000][Scoreboard] PARITYERR GPIOOUT pass expected 1 actual 1
# [Time = 895000][Driver] Packet Complete
# [Time = 895000][Driver] Packet No. 84
# [Time = 895000][Monitor] Sampling output No. 84
# -------------------[Time = 895000][Scoreboard][Packet no. 84]-------------------
# [Transaction] Outputs: HADDR, HTRANS, HWDATA, HWRITE, HSEL, HREADY, GPIOIN, PARITYSEL
# [Transaction] Values: 00000004, 2, ca80ee49, 1, 0, 1, 0631e, 1
# ------------------------------------------------------------------------------
# [Time = 895000][Scoreboard] GPIOOUT Input Read pass expected a0a1 actual a0a1
# [Time = 895000][Scoreboard] PARITYERR GPIOOUT pass expected 0 actual 0
# [Time = 905000][Driver] Packet Complete
# [Time = 905000][Driver] Packet No. 85
# [Time = 905000][Monitor] Sampling output No. 85
# -------------------[Time = 905000][Scoreboard][Packet no. 85]-------------------
# [Transaction] Outputs: HADDR, HTRANS, HWDATA, HWRITE, HSEL, HREADY, GPIOIN, PARITYSEL
# [Transaction] Values: cfd97e73, 2, 00000001, 1, 1, 1, 0c152, 0
# ------------------------------------------------------------------------------
# [Time = 905000][Scoreboard] GPIOOUT Input Read pass expected a0a1 actual a0a1
# [Time = 905000][Scoreboard] PARITYERR GPIOOUT pass expected 1 actual 1
# [Time = 915000][Driver] Packet Complete
# [Time = 915000][Driver] Packet No. 86
# [Time = 915000][Monitor] Sampling output No. 86
# -------------------[Time = 915000][Scoreboard][Packet no. 86]-------------------
# [Transaction] Outputs: HADDR, HTRANS, HWDATA, HWRITE, HSEL, HREADY, GPIOIN, PARITYSEL
# [Transaction] Values: 0470f6c5, 2, f53c8f7d, 1, 1, 1, 00545, 1
# ------------------------------------------------------------------------------
# [Time = 915000][Scoreboard] GPIOOUT Input Read pass expected a0a1 actual a0a1
# [Time = 915000][Scoreboard] PARITYERR GPIOOUT pass expected 0 actual 0
# [Time = 925000][Driver] Packet Complete
# [Time = 925000][Driver] Packet No. 87
# [Time = 925000][Monitor] Sampling output No. 87
# -------------------[Time = 925000][Scoreboard][Packet no. 87]-------------------
# [Transaction] Outputs: HADDR, HTRANS, HWDATA, HWRITE, HSEL, HREADY, GPIOIN, PARITYSEL
# [Transaction] Values: 14b98523, 2, 3598ebd0, 0, 1, 1, 0f4a9, 0
# ------------------------------------------------------------------------------
# [Time = 925000][Scoreboard] GPIOOUT Input Read pass expected a0a1 actual a0a1
# [Time = 925000][Scoreboard] PARITYERR GPIOOUT pass expected 1 actual 1
# [Time = 935000][Driver] Packet Complete
# [Time = 935000][Driver] Packet No. 88
# [Time = 935000][Monitor] Sampling output No. 88
# -------------------[Time = 935000][Scoreboard][Packet no. 88]-------------------
# [Transaction] Outputs: HADDR, HTRANS, HWDATA, HWRITE, HSEL, HREADY, GPIOIN, PARITYSEL
# [Transaction] Values: d5d48856, 2, bf1268f0, 1, 1, 1, 0d6ca, 0
# ------------------------------------------------------------------------------
# [Time = 935000][Scoreboard] GPIOOUT Input Read pass expected a0a1 actual a0a1
# [Time = 935000][Scoreboard] PARITYERR GPIOOUT pass expected 1 actual 1
# [Time = 945000][Driver] Packet Complete
# [Time = 945000][Driver] Packet No. 89
# [Time = 945000][Monitor] Sampling output No. 89
# -------------------[Time = 945000][Scoreboard][Packet no. 89]-------------------
# [Transaction] Outputs: HADDR, HTRANS, HWDATA, HWRITE, HSEL, HREADY, GPIOIN, PARITYSEL
# [Transaction] Values: 39b6dc47, 2, bef6fc85, 1, 1, 1, 12009, 1
# ------------------------------------------------------------------------------
# [Time = 945000][Scoreboard] GPIOOUT Input Read pass expected a0a1 actual a0a1
# [Time = 945000][Scoreboard] PARITYERR GPIOOUT pass expected 0 actual 0
# [Time = 955000][Driver] Packet Complete
# [Time = 955000][Driver] Packet No. 90
# [Time = 955000][Monitor] Sampling output No. 90
# -------------------[Time = 955000][Scoreboard][Packet no. 90]-------------------
# [Transaction] Outputs: HADDR, HTRANS, HWDATA, HWRITE, HSEL, HREADY, GPIOIN, PARITYSEL
# [Transaction] Values: a305556c, 2, 94522252, 1, 0, 1, 08a7d, 0
# ------------------------------------------------------------------------------
# [Time = 955000][Scoreboard] GPIOOUT Input Read pass expected a0a1 actual a0a1
# [Time = 955000][Scoreboard] PARITYERR GPIOOUT pass expected 1 actual 1
# [Time = 965000][Driver] Packet Complete
# [Time = 965000][Driver] Packet No. 91
# [Time = 965000][Monitor] Sampling output No. 91
# -------------------[Time = 965000][Scoreboard][Packet no. 91]-------------------
# [Transaction] Outputs: HADDR, HTRANS, HWDATA, HWRITE, HSEL, HREADY, GPIOIN, PARITYSEL
# [Transaction] Values: 2a750e51, 2, d68fcb4e, 1, 0, 1, 11a88, 1
# ------------------------------------------------------------------------------
# [Time = 965000][Scoreboard] GPIOOUT Input Read pass expected a0a1 actual a0a1
# [Time = 965000][Scoreboard] PARITYERR GPIOOUT pass expected 0 actual 0
# [Time = 975000][Driver] Packet Complete
# [Time = 975000][Driver] Packet No. 92
# [Time = 975000][Monitor] Sampling output No. 92
# -------------------[Time = 975000][Scoreboard][Packet no. 92]-------------------
# [Transaction] Outputs: HADDR, HTRANS, HWDATA, HWRITE, HSEL, HREADY, GPIOIN, PARITYSEL
# [Transaction] Values: a997458e, 2, bb76a943, 0, 1, 1, 0ff43, 1
# ------------------------------------------------------------------------------
# [Time = 975000][Scoreboard] GPIOOUT Input Read pass expected a0a1 actual a0a1
# [Time = 975000][Scoreboard] PARITYERR GPIOOUT pass expected 0 actual 0
# [Time = 985000][Driver] Packet Complete
# [Time = 985000][Driver] Packet No. 93
# [Time = 985000][Monitor] Sampling output No. 93
# -------------------[Time = 985000][Scoreboard][Packet no. 93]-------------------
# [Transaction] Outputs: HADDR, HTRANS, HWDATA, HWRITE, HSEL, HREADY, GPIOIN, PARITYSEL
# [Transaction] Values: 74c2d7f7, 2, 17429546, 1, 1, 1, 02f7d, 1
# ------------------------------------------------------------------------------
# [Time = 985000][Scoreboard] GPIOOUT Input Read pass expected a0a1 actual a0a1
# [Time = 985000][Scoreboard] PARITYERR GPIOOUT pass expected 0 actual 0
# [Time = 995000][Driver] Packet Complete
# [Time = 995000][Driver] Packet No. 94
# [Time = 995000][Monitor] Sampling output No. 94
# -------------------[Time = 995000][Scoreboard][Packet no. 94]-------------------
# [Transaction] Outputs: HADDR, HTRANS, HWDATA, HWRITE, HSEL, HREADY, GPIOIN, PARITYSEL
# [Transaction] Values: 00000004, 2, 7823ecde, 1, 0, 1, 16e45, 1
# ------------------------------------------------------------------------------
# [Time = 995000][Scoreboard] GPIOOUT Input Read pass expected a0a1 actual a0a1
# [Time = 995000][Scoreboard] PARITYERR GPIOOUT pass expected 0 actual 0
# [Time = 1005000][Driver] Packet Complete
# [Time = 1005000][Driver] Packet No. 95
# [Time = 1005000][Monitor] Sampling output No. 95
# -------------------[Time = 1005000][Scoreboard][Packet no. 95]-------------------
# [Transaction] Outputs: HADDR, HTRANS, HWDATA, HWRITE, HSEL, HREADY, GPIOIN, PARITYSEL
# [Transaction] Values: 8825e1cf, 2, 00000000, 1, 0, 1, 1d1d7, 1
# ------------------------------------------------------------------------------
# [Time = 1005000][Scoreboard] GPIOOUT Input Read pass expected a0a1 actual a0a1
# [Time = 1005000][Scoreboard] PARITYERR GPIOOUT pass expected 0 actual 0
# [Time = 1015000][Driver] Packet Complete
# [Time = 1015000][Driver] Packet No. 96
# [Time = 1015000][Monitor] Sampling output No. 96
# -------------------[Time = 1015000][Scoreboard][Packet no. 96]-------------------
# [Transaction] Outputs: HADDR, HTRANS, HWDATA, HWRITE, HSEL, HREADY, GPIOIN, PARITYSEL
# [Transaction] Values: 1a9fd9ff, 2, 1ce009c9, 0, 1, 1, 0c7a2, 0
# ------------------------------------------------------------------------------
# [Time = 1015000][Scoreboard] GPIOOUT Input Read pass expected a0a1 actual a0a1
# [Time = 1015000][Scoreboard] PARITYERR GPIOOUT pass expected 1 actual 1
# [Time = 1025000][Driver] Packet Complete
# [Time = 1025000][Driver] Packet No. 97
# [Time = 1025000][Monitor] Sampling output No. 97
# -------------------[Time = 1025000][Scoreboard][Packet no. 97]-------------------
# [Transaction] Outputs: HADDR, HTRANS, HWDATA, HWRITE, HSEL, HREADY, GPIOIN, PARITYSEL
# [Transaction] Values: a776d459, 2, beefbb34, 1, 0, 1, 06295, 0
# ------------------------------------------------------------------------------
# [Time = 1025000][Scoreboard] GPIOOUT Input Read pass expected a0a1 actual a0a1
# [Time = 1025000][Scoreboard] PARITYERR GPIOOUT pass expected 1 actual 1
# [Time = 1035000][Driver] Packet Complete
# [Time = 1035000][Driver] Packet No. 98
# [Time = 1035000][Monitor] Sampling output No. 98
# -------------------[Time = 1035000][Scoreboard][Packet no. 98]-------------------
# [Transaction] Outputs: HADDR, HTRANS, HWDATA, HWRITE, HSEL, HREADY, GPIOIN, PARITYSEL
# [Transaction] Values: 184b114d, 2, 30204a8e, 0, 0, 1, 0705d, 0
# ------------------------------------------------------------------------------
# [Time = 1035000][Scoreboard] GPIOOUT Input Read pass expected a0a1 actual a0a1
# [Time = 1035000][Scoreboard] PARITYERR GPIOOUT pass expected 1 actual 1
# [Time = 1045000][Driver] Packet Complete
# [Time = 1045000][Driver] Packet No. 99
# [Time = 1045000][Monitor] Sampling output No. 99
# -------------------[Time = 1045000][Scoreboard][Packet no. 99]-------------------
# [Transaction] Outputs: HADDR, HTRANS, HWDATA, HWRITE, HSEL, HREADY, GPIOIN, PARITYSEL
# [Transaction] Values: 6af46986, 2, 3bd94347, 1, 0, 1, 191fd, 1
# ------------------------------------------------------------------------------
# [Time = 1045000][Scoreboard] GPIOOUT Input Read pass expected a0a1 actual a0a1
# [Time = 1045000][Scoreboard] PARITYERR GPIOOUT pass expected 0 actual 0
# [Time = 1055000][Driver] Packet Complete
# [Time = 1055000][Driver] Packet No. 100
# [Time = 1055000][Monitor] Sampling output No. 100
# -------------------[Time = 1055000][Scoreboard][Packet no. 100]-------------------
# [Transaction] Outputs: HADDR, HTRANS, HWDATA, HWRITE, HSEL, HREADY, GPIOIN, PARITYSEL
# [Transaction] Values: 8d3ddc5d, 2, 2f7484cb, 1, 0, 1, 09e6e, 1
# ------------------------------------------------------------------------------
# [Time = 1055000][Scoreboard] GPIOOUT Input Read pass expected a0a1 actual a0a1
# [Time = 1055000][Scoreboard] PARITYERR GPIOOUT pass expected 0 actual 0
# [Time = 1065000][Driver] Packet Complete
# [Time = 1065000][Driver] Packet No. 101
# [Time = 1065000][Monitor] Sampling output No. 101
# -------------------[Time = 1065000][Scoreboard][Packet no. 101]-------------------
# [Transaction] Outputs: HADDR, HTRANS, HWDATA, HWRITE, HSEL, HREADY, GPIOIN, PARITYSEL
# [Transaction] Values: b296f65a, 2, 3c4a1b19, 0, 0, 1, 1f201, 0
# ------------------------------------------------------------------------------
# [Time = 1065000][Scoreboard] GPIOOUT Input Read pass expected a0a1 actual a0a1
# [Time = 1065000][Scoreboard] PARITYERR GPIOOUT pass expected 1 actual 1
# [Time = 1075000][Driver] Packet Complete
# [Time = 1075000][Driver] Packet No. 102
# [Time = 1075000][Monitor] Sampling output No. 102
# -------------------[Time = 1075000][Scoreboard][Packet no. 102]-------------------
# [Transaction] Outputs: HADDR, HTRANS, HWDATA, HWRITE, HSEL, HREADY, GPIOIN, PARITYSEL
# [Transaction] Values: 37ba86a2, 2, 253c5048, 1, 1, 1, 1bc14, 0
# ------------------------------------------------------------------------------
# [Time = 1075000][Scoreboard] GPIOOUT Input Read pass expected a0a1 actual a0a1
# [Time = 1075000][Scoreboard] PARITYERR GPIOOUT pass expected 1 actual 1
# [Time = 1085000][Driver] Packet Complete
# [Time = 1085000][Driver] Packet No. 103
# [Time = 1085000][Monitor] Sampling output No. 103
# -------------------[Time = 1085000][Scoreboard][Packet no. 103]-------------------
# [Transaction] Outputs: HADDR, HTRANS, HWDATA, HWRITE, HSEL, HREADY, GPIOIN, PARITYSEL
# [Transaction] Values: 8c137ddb, 2, a14e5059, 0, 0, 1, 02c36, 0
# ------------------------------------------------------------------------------
# [Time = 1085000][Scoreboard] GPIOOUT Input Read pass expected a0a1 actual a0a1
# [Time = 1085000][Scoreboard] PARITYERR GPIOOUT pass expected 1 actual 1
# [Time = 1095000][Driver] Packet Complete
# [Time = 1095000][Driver] Packet No. 104
# [Time = 1095000][Monitor] Sampling output No. 104
# -------------------[Time = 1095000][Scoreboard][Packet no. 104]-------------------
# [Transaction] Outputs: HADDR, HTRANS, HWDATA, HWRITE, HSEL, HREADY, GPIOIN, PARITYSEL
# [Transaction] Values: 00000004, 2, 0a8865f0, 1, 0, 1, 11ee4, 1
# ------------------------------------------------------------------------------
# [Time = 1095000][Scoreboard] GPIOOUT Input Read pass expected a0a1 actual a0a1
# [Time = 1095000][Scoreboard] PARITYERR GPIOOUT pass expected 0 actual 0
# [Time = 1105000][Driver] Packet Complete
# [Time = 1105000][Driver] Packet No. 105
# [Time = 1105000][Monitor] Sampling output No. 105
# -------------------[Time = 1105000][Scoreboard][Packet no. 105]-------------------
# [Transaction] Outputs: HADDR, HTRANS, HWDATA, HWRITE, HSEL, HREADY, GPIOIN, PARITYSEL
# [Transaction] Values: 7a243ce2, 2, 00000001, 1, 0, 1, 0f795, 0
# ------------------------------------------------------------------------------
# [Time = 1105000][Scoreboard] GPIOOUT Input Read pass expected a0a1 actual a0a1
# [Time = 1105000][Scoreboard] PARITYERR GPIOOUT pass expected 1 actual 1
# [Time = 1115000][Driver] Packet Complete
# [Time = 1115000][Driver] Packet No. 106
# [Time = 1115000][Monitor] Sampling output No. 106
# -------------------[Time = 1115000][Scoreboard][Packet no. 106]-------------------
# [Transaction] Outputs: HADDR, HTRANS, HWDATA, HWRITE, HSEL, HREADY, GPIOIN, PARITYSEL
# [Transaction] Values: b4b20428, 2, 7f6680f1, 1, 1, 1, 0ed25, 1
# ------------------------------------------------------------------------------
# [Time = 1115000][Scoreboard] GPIOOUT Input Read pass expected a0a1 actual a0a1
# [Time = 1115000][Scoreboard] PARITYERR GPIOOUT pass expected 0 actual 0
# [Time = 1125000][Driver] Packet Complete
# [Time = 1125000][Driver] Packet No. 107
# [Time = 1125000][Monitor] Sampling output No. 107
# -------------------[Time = 1125000][Scoreboard][Packet no. 107]-------------------
# [Transaction] Outputs: HADDR, HTRANS, HWDATA, HWRITE, HSEL, HREADY, GPIOIN, PARITYSEL
# [Transaction] Values: 846ef461, 2, 5817cfc2, 0, 0, 1, 02ec0, 0
# ------------------------------------------------------------------------------
# [Time = 1125000][Scoreboard] GPIOOUT Input Read pass expected a0a1 actual a0a1
# [Time = 1125000][Scoreboard] PARITYERR GPIOOUT pass expected 1 actual 1
# [Time = 1135000][Driver] Packet Complete
# [Time = 1135000][Driver] Packet No. 108
# [Time = 1135000][Monitor] Sampling output No. 108
# -------------------[Time = 1135000][Scoreboard][Packet no. 108]-------------------
# [Transaction] Outputs: HADDR, HTRANS, HWDATA, HWRITE, HSEL, HREADY, GPIOIN, PARITYSEL
# [Transaction] Values: 1e131160, 2, 2d25e80a, 0, 0, 1, 00f5d, 1
# ------------------------------------------------------------------------------
# [Time = 1135000][Scoreboard] GPIOOUT Input Read pass expected a0a1 actual a0a1
# [Time = 1135000][Scoreboard] PARITYERR GPIOOUT pass expected 0 actual 0
# [Time = 1145000][Driver] Packet Complete
# [Time = 1145000][Driver] Packet No. 109
# [Time = 1145000][Monitor] Sampling output No. 109
# -------------------[Time = 1145000][Scoreboard][Packet no. 109]-------------------
# [Transaction] Outputs: HADDR, HTRANS, HWDATA, HWRITE, HSEL, HREADY, GPIOIN, PARITYSEL
# [Transaction] Values: 6575b88e, 2, b30d6fc3, 0, 1, 1, 10a8a, 1
# ------------------------------------------------------------------------------
# [Time = 1145000][Scoreboard] GPIOOUT Input Read pass expected a0a1 actual a0a1
# [Time = 1145000][Scoreboard] PARITYERR GPIOOUT pass expected 0 actual 0
# [Time = 1155000][Driver] Packet Complete
# [Time = 1155000][Driver] Packet No. 110
# [Time = 1155000][Monitor] Sampling output No. 110
# -------------------[Time = 1155000][Scoreboard][Packet no. 110]-------------------
# [Transaction] Outputs: HADDR, HTRANS, HWDATA, HWRITE, HSEL, HREADY, GPIOIN, PARITYSEL
# [Transaction] Values: debb2169, 2, b91d0dc5, 0, 1, 1, 02fca, 1
# ------------------------------------------------------------------------------
# [Time = 1155000][Scoreboard] GPIOOUT Input Read pass expected a0a1 actual a0a1
# [Time = 1155000][Scoreboard] PARITYERR GPIOOUT pass expected 0 actual 0
# [Time = 1165000][Driver] Packet Complete
# [Time = 1165000][Driver] Packet No. 111
# [Time = 1165000][Monitor] Sampling output No. 111
# -------------------[Time = 1165000][Scoreboard][Packet no. 111]-------------------
# [Transaction] Outputs: HADDR, HTRANS, HWDATA, HWRITE, HSEL, HREADY, GPIOIN, PARITYSEL
# [Transaction] Values: 3fa5208c, 2, 7aedd4d3, 0, 0, 1, 0cbbe, 1
# ------------------------------------------------------------------------------
# [Time = 1165000][Scoreboard] GPIOOUT Input Read pass expected a0a1 actual a0a1
# [Time = 1165000][Scoreboard] PARITYERR GPIOOUT pass expected 0 actual 0
# [Time = 1175000][Driver] Packet Complete
# [Time = 1175000][Driver] Packet No. 112
# [Time = 1175000][Monitor] Sampling output No. 112
# -------------------[Time = 1175000][Scoreboard][Packet no. 112]-------------------
# [Transaction] Outputs: HADDR, HTRANS, HWDATA, HWRITE, HSEL, HREADY, GPIOIN, PARITYSEL
# [Transaction] Values: 0ef847cf, 2, 7f844e51, 0, 1, 1, 0c5d8, 1
# ------------------------------------------------------------------------------
# [Time = 1175000][Scoreboard] GPIOOUT Input Read pass expected a0a1 actual a0a1
# [Time = 1175000][Scoreboard] PARITYERR GPIOOUT pass expected 0 actual 0
# [Time = 1185000][Driver] Packet Complete
# [Time = 1185000][Driver] Packet No. 113
# [Time = 1185000][Monitor] Sampling output No. 113
# -------------------[Time = 1185000][Scoreboard][Packet no. 113]-------------------
# [Transaction] Outputs: HADDR, HTRANS, HWDATA, HWRITE, HSEL, HREADY, GPIOIN, PARITYSEL
# [Transaction] Values: 7e121cd3, 2, 7e4f8584, 0, 0, 1, 1f93d, 0
# ------------------------------------------------------------------------------
# [Time = 1185000][Scoreboard] GPIOOUT Input Read pass expected a0a1 actual a0a1
# [Time = 1185000][Scoreboard] PARITYERR GPIOOUT pass expected 1 actual 1
# [Time = 1195000][Driver] Packet Complete
# [Time = 1195000][Driver] Packet No. 114
# [Time = 1195000][Monitor] Sampling output No. 114
# -------------------[Time = 1195000][Scoreboard][Packet no. 114]-------------------
# [Transaction] Outputs: HADDR, HTRANS, HWDATA, HWRITE, HSEL, HREADY, GPIOIN, PARITYSEL
# [Transaction] Values: 00000004, 2, 0cecb559, 1, 1, 1, 1d943, 0
# ------------------------------------------------------------------------------
# [Time = 1195000][Scoreboard] GPIOOUT Input Read pass expected a0a1 actual a0a1
# [Time = 1195000][Scoreboard] PARITYERR GPIOOUT pass expected 1 actual 1
# [Time = 1205000][Driver] Packet Complete
# [Time = 1205000][Driver] Packet No. 115
# [Time = 1205000][Monitor] Sampling output No. 115
# -------------------[Time = 1205000][Scoreboard][Packet no. 115]-------------------
# [Transaction] Outputs: HADDR, HTRANS, HWDATA, HWRITE, HSEL, HREADY, GPIOIN, PARITYSEL
# [Transaction] Values: e72d9199, 2, 00000000, 1, 0, 1, 05a6e, 1
# ------------------------------------------------------------------------------
